Time Stamp,ID,Extended,Dir,Bus,LEN,D1,D2,D3,D4,D5,D6,D7,D8
96291,00000285,false,Rx,0,8,00,00,02,00,00,00,00,00,
101291,00000370,false,Rx,0,8,00,00,00,00,00,00,00,00,
106291,00000287,false,Rx,0,8,27,10,27,10,27,10,00,00,
111291,00000285,false,Rx,0,8,00,00,02,00,00,00,00,10,
116291,00000287,false,Rx,0,8,27,10,27,10,27,10,00,00,
121291,00000370,false,Rx,0,8,00,00,00,00,00,00,00,00,
126291,00000732,false,Rx,0,8,03,E8,03,E8,64,64,1A,1A,
131291,00000374,false,Rx,0,8,00,00,00,00,00,00,00,F0,
136291,00000288,false,Rx,0,8,27,10,4E,20,00,01,01,10,
141291,00000362,false,Rx,0,8,00,00,00,00,00,00,00,00,
146291,00000288,false,Rx,0,8,27,10,4E,20,00,01,01,10,
151291,00000374,false,Rx,0,8,0A,B9,5B,00,3C,3C,00,30,
156291,00000288,false,Rx,0,8,27,10,4E,20,18,01,01,10,
161291,00000362,false,Rx,0,8,00,00,00,00,00,00,00,00,
166291,00000285,false,Rx,0,8,00,00,03,3A,7E,00,08,10,
171291,00000374,false,Rx,0,8,0A,B9,5B,00,4A,48,00,30,
176291,00000569,false,Rx,0,8,0A,80,00,00,00,00,00,00,
181291,00000424,false,Rx,0,8,05,7E,00,1F,09,4B,00,00,
186291,0000075A,false,Rx,0,8,03,E8,03,E8,64,64,36,36,
191291,00000374,false,Rx,0,8,B3,B9,2B,EA,4A,48,40,30,
196291,00000285,false,Rx,0,8,00,00,03,3A,7D,00,08,10,
201291,00000362,false,Rx,0,8,01,00,10,04,00,00,00,00,
206291,0000075B,false,Rx,0,8,30,00,30,00,0F,B0,A4,3A,
211291,00000374,false,Rx,0,8,B3,B9,2B,EB,4A,48,40,30,
216291,00000569,false,Rx,0,8,0A,80,00,00,00,00,00,00,
221291,00000424,false,Rx,0,8,05,7C,00,1F,09,4B,00,00,
226291,0000075B,false,Rx,0,8,33,00,33,00,0F,B0,A4,3C,
231291,00000287,false,Rx,0,8,27,10,27,10,27,10,00,00,
236291,00000370,false,Rx,0,8,05,BE,00,00,00,00,00,00,
241291,00000287,false,Rx,0,8,27,10,27,10,27,10,00,00,
246291,0000075B,false,Rx,0,8,34,00,35,00,0F,B0,A4,3D,
251291,00000287,false,Rx,0,8,27,10,27,10,27,10,00,00,
256291,00000370,false,Rx,0,8,05,BE,00,00,00,00,00,00,
261291,00000287,false,Rx,0,8,27,10,27,10,27,10,00,00,
266291,0000075B,false,Rx,0,8,36,00,36,00,0F,B0,A4,3E,
271291,00000287,false,Rx,0,8,27,10,27,10,27,10,00,00,
276291,00000370,false,Rx,0,8,05,BE,00,00,00,00,00,00,
281291,00000289,false,Rx,0,8,27,10,4E,20,18,01,11,10,
286291,0000075B,false,Rx,0,8,38,00,38,00,0F,B0,A4,3E,
291291,0000056B,false,Rx,0,8,AA,00,00,00,00,A2,00,00,
296291,00000362,false,Rx,0,8,04,03,10,03,00,00,00,00,
301291,00000285,false,Rx,0,8,00,00,03,3A,7A,00,08,10,
306291,00000362,false,Rx,0,8,04,03,10,03,00,00,00,00,
311291,00000373,false,Rx,0,8,C3,C2,7F,BC,0C,A3,80,06,
316291,00000424,false,Rx,0,8,05,7C,00,1F,09,4B,00,00,
321291,00000288,false,Rx,0,8,27,10,4E,20,18,02,01,10,
326291,00000362,false,Rx,0,8,04,03,10,01,00,00,00,00,
331291,00000288,false,Rx,0,8,27,10,4E,20,18,2A,01,10,
336291,00000362,false,Rx,0,8,02,01,00,00,00,00,00,00,
341291,00000732,false,Rx,0,8,03,E8,03,E8,64,64,40,40,
346291,00000362,false,Rx,0,8,02,01,00,00,00,00,00,00,
351291,00000389,false,Rx,0,8,97,00,00,40,40,00,00,00,
356291,00000424,false,Rx,0,8,05,7D,00,1F,09,4B,00,00,
361291,00000734,false,Rx,0,8,03,E8,03,E8,64,64,3E,3F,
366291,00000287,false,Rx,0,8,27,10,27,10,27,10,00,00,
371291,00000370,false,Rx,0,8,05,BE,00,00,00,00,00,00,
376291,00000287,false,Rx,0,8,27,10,27,10,27,10,00,00,
381291,0000075A,false,Rx,0,8,03,E8,03,E8,64,64,3F,3E,
386291,00000287,false,Rx,0,8,27,10,27,10,27,10,00,00,
391291,00000370,false,Rx,0,8,05,BE,00,00,00,00,00,00,
396291,00000287,false,Rx,0,8,27,10,27,10,27,10,00,00,
401291,0000075A,false,Rx,0,8,03,E8,03,E8,64,64,3F,3E,
406291,00000287,false,Rx,0,8,27,10,27,10,27,10,00,00,
411291,00000370,false,Rx,0,8,05,BE,00,00,00,00,00,00,
416291,00000287,false,Rx,0,8,27,10,27,10,27,10,00,00,
421291,0000075A,false,Rx,0,8,03,E8,03,E8,64,64,3F,3E,
426291,00000287,false,Rx,0,8,27,10,27,10,27,10,00,00,
431291,00000370,false,Rx,0,8,05,BE,00,00,00,00,00,00,
436291,00000285,false,Rx,0,8,00,00,03,38,7B,00,08,10,
441291,0000075A,false,Rx,0,8,03,E8,03,E8,64,64,3F,3E,
446291,00000285,false,Rx,0,8,00,00,13,38,7B,00,08,10,
451291,00000389,false,Rx,0,8,A2,00,00,40,40,00,00,00,
456291,0000028B,false,Rx,0,8,27,10,4E,20,0D,42,01,10,
461291,000006FA,false,Rx,0,8,00,4A,4D,46,58,44,47,47,
466291,0000029A,false,Rx,0,8,02,31,32,32,FF,FF,FF,FF,
471291,00000362,false,Rx,0,8,02,03,10,03,00,00,00,00,
476291,0000029B,false,Rx,0,8,3C,3F,3B,3E,3A,0A,15,3C,
481291,000006FA,false,Rx,0,8,01,32,57,45,5A,30,30,31,
486291,00000373,false,Rx,0,8,C2,C2,7E,D7,0C,A1,80,06,
491291,00000375,false,Rx,0,8,0F,0F,00,22,F6,00,00,00,
496291,00000288,false,Rx,0,8,27,10,4E,20,19,44,01,10,
501291,00000287,false,Rx,0,8,27,10,27,10,27,10,00,00,
506291,00000370,false,Rx,0,8,05,BE,00,00,00,00,00,00,
511291,00000287,false,Rx,0,8,27,10,27,10,27,10,00,00,
516291,00000732,false,Rx,0,8,03,E8,03,E8,64,64,40,40,
521291,00000287,false,Rx,0,8,27,10,27,10,27,10,00,00,
526291,0000038A,false,Rx,0,8,40,40,16,00,04,00,00,00,
531291,00000287,false,Rx,0,8,27,10,27,10,27,10,00,00,
536291,00000734,false,Rx,0,8,03,E8,03,E8,64,64,3E,3F,
541291,00000287,false,Rx,0,8,27,10,27,10,27,10,00,00,
546291,0000038A,false,Rx,0,8,40,40,16,00,04,00,00,00,
551291,00000287,false,Rx,0,8,27,10,27,10,27,10,00,00,
556291,0000075A,false,Rx,0,8,03,E8,03,E8,64,64,3F,3E,
561291,00000287,false,Rx,0,8,27,10,27,10,27,10,00,00,
566291,0000038A,false,Rx,0,8,40,40,16,00,04,00,00,00,
571291,00000285,false,Rx,0,8,00,00,14,38,8C,FE,0C,10,
576291,0000075A,false,Rx,0,8,03,E8,03,E8,64,64,3F,3E,
581291,00000285,false,Rx,0,8,00,00,14,38,8C,FE,0C,10,
586291,00000424,false,Rx,0,8,04,93,00,1F,09,4B,00,00,
591291,00000285,false,Rx,0,8,00,00,14,38,8D,FE,0C,10,
596291,0000075A,false,Rx,0,8,03,EC,03,E9,68,64,3F,3E,
601291,00000388,false,Rx,0,8,01,00,00,00,00,00,00,02,
606291,0000038A,false,Rx,0,8,40,40,16,00,04,00,00,00,
611291,00000285,false,Rx,0,8,00,00,14,38,8D,FE,0C,10,
616291,0000075A,false,Rx,0,8,04,03,03,EE,64,63,3F,3E,
621291,00000388,false,Rx,0,8,01,00,00,00,00,00,00,02,
626291,00000424,false,Rx,0,8,04,93,00,1F,09,4B,00,00,
631291,00000289,false,Rx,0,8,27,EB,4E,26,19,44,11,1C,
636291,00000287,false,Rx,0,8,27,FE,27,E4,27,10,03,00,
641291,00000370,false,Rx,0,8,05,BE,00,00,00,00,00,00,
646291,00000362,false,Rx,0,8,02,02,00,00,00,00,00,00,
651291,0000056D,false,Rx,0,8,2A,00,00,20,00,00,28,0A,
656291,00000362,false,Rx,0,8,02,02,00,00,00,00,00,00,
661291,00000373,false,Rx,0,8,C2,C2,7D,7C,0C,9F,80,06,
666291,00000362,false,Rx,0,8,02,02,00,00,00,00,00,00,
671291,00000732,false,Rx,0,8,04,11,03,F0,64,64,40,40,
676291,00000362,false,Rx,0,8,02,02,00,00,00,00,00,00,
681291,00000424,false,Rx,0,8,04,93,00,1F,09,4B,00,00,
686291,00000362,false,Rx,0,8,02,02,00,00,00,00,00,00,
691291,0000056C,false,Rx,0,8,2A,88,02,20,00,00,28,0A,
696291,00000362,false,Rx,0,8,02,02,00,00,00,00,00,00,
701291,00000563,false,Rx,0,8,0A,2A,00,AA,A2,0A,00,00,
706291,00000362,false,Rx,0,8,02,02,00,00,00,00,00,00,
711291,0000075A,false,Rx,0,8,04,24,03,FC,64,63,3F,3E,
716291,00000285,false,Rx,0,8,00,00,14,38,8E,FE,0C,10,
721291,0000066A,false,Rx,0,8,00,00,00,00,00,00,00,00,
726291,00000285,false,Rx,0,8,00,00,14,38,8F,FE,0C,10,
731291,0000075A,false,Rx,0,8,04,25,03,FB,64,64,3F,3E,
736291,00000285,false,Rx,0,8,00,00,14,38,8F,FE,0C,10,
741291,00000563,false,Rx,0,8,0A,2A,00,AA,A2,0A,00,00,
746291,00000285,false,Rx,0,8,00,00,14,38,8F,FE,0C,10,
751291,000005A1,false,Rx,0,8,02,A0,2A,2A,22,0A,80,22,
756291,00000285,false,Rx,0,8,00,00,14,38,8F,FE,0C,10,
761291,000005A1,false,Rx,0,8,02,A0,2A,2A,22,0A,80,22,
766291,00000285,false,Rx,0,8,00,00,14,38,8F,FE,0C,10,
771291,000005A1,false,Rx,0,8,02,A0,2A,2A,22,0A,80,22,
776291,00000285,false,Rx,0,8,00,00,14,38,8F,FE,0C,10,
781291,00000287,false,Rx,0,8,28,31,28,14,27,10,03,00,
786291,00000285,false,Rx,0,8,00,00,14,38,8F,FE,0C,10,
791291,00000287,false,Rx,0,8,28,4D,28,2E,27,10,03,00,
796291,00000370,false,Rx,0,8,05,BE,00,00,00,00,00,00,
801291,00000287,false,Rx,0,8,28,69,28,47,27,10,03,00,
806291,0000028B,false,Rx,0,8,27,10,4E,20,0D,43,01,14,
811291,00000287,false,Rx,0,8,28,7F,28,5C,27,10,03,00,
816291,00000289,false,Rx,0,8,28,69,4E,4C,19,44,11,1C,
821291,00000287,false,Rx,0,8,28,8F,28,6C,27,10,03,00,
826291,00000566,false,Rx,0,8,22,8A,0A,A0,A8,A0,AA,8A,
831291,0000066B,false,Rx,0,8,00,39,34,39,39,44,30,35,
836291,00000373,false,Rx,0,8,C2,C2,7C,6A,0C,9D,80,06,
841291,00000362,false,Rx,0,8,02,02,00,00,00,00,00,00,
846291,00000732,false,Rx,0,8,04,2B,03,F7,63,64,40,40,
851291,00000285,false,Rx,0,8,00,00,14,38,90,FE,0C,10,
856291,00000564,false,Rx,0,8,22,8A,0A,AA,A8,A0,AA,8A,
861291,00000285,false,Rx,0,8,00,00,14,38,90,FE,0C,10,
866291,00000734,false,Rx,0,8,03,E8,03,E8,64,64,3D,3E,
871291,00000285,false,Rx,0,8,00,00,14,38,91,FE,0C,10,
876291,00000564,false,Rx,0,8,22,8A,0A,AA,A8,A0,AA,8A,
881291,00000285,false,Rx,0,8,00,00,14,38,91,FE,0C,10,
886291,0000075A,false,Rx,0,8,04,4C,04,10,64,64,3F,3F,
891291,00000285,false,Rx,0,8,00,00,14,38,91,FE,0C,10,
896291,00000568,false,Rx,0,8,00,02,80,0A,00,00,A8,AA,
901291,00000285,false,Rx,0,8,00,00,14,38,91,FE,0C,10,
906291,0000075A,false,Rx,0,8,04,57,04,17,64,64,3F,3F,
911291,00000285,false,Rx,0,8,00,00,14,38,91,FE,0C,10,
916291,00000287,false,Rx,0,8,29,2E,29,06,27,10,03,00,
921291,00000285,false,Rx,0,8,00,00,14,38,91,FE,0C,10,
926291,00000287,false,Rx,0,8,29,3C,29,17,27,10,03,00,
931291,00000370,false,Rx,0,8,05,BE,00,00,00,00,00,00,
936291,00000287,false,Rx,0,8,29,41,29,23,27,10,03,00,
941291,00000362,false,Rx,0,8,02,02,00,00,00,00,00,00,
946291,00000287,false,Rx,0,8,29,45,29,29,27,10,03,00,
951291,00000424,false,Rx,0,8,04,93,00,1F,09,4B,00,00,
956291,00000287,false,Rx,0,8,29,46,29,2C,27,10,03,00,
961291,00000154,false,Rx,0,8,67,67,A0,69,0A,03,7A,B4,
966291,00000287,false,Rx,0,8,29,45,29,2C,27,10,03,00,
971291,00000370,false,Rx,0,8,05,BE,00,00,00,00,00,00,
976291,00000287,false,Rx,0,8,29,42,29,2A,27,10,03,00,
981291,0000028B,false,Rx,0,8,27,10,4E,20,0D,42,01,14,
986291,00000285,false,Rx,0,8,00,00,14,38,90,FE,0C,10,
991291,00000289,false,Rx,0,8,29,24,4E,BF,19,43,11,1C,
996291,00000285,false,Rx,0,8,00,00,14,38,90,FE,0C,10,
1001291,00000732,false,Rx,0,8,04,42,04,07,64,64,41,41,
1006291,00000362,false,Rx,0,8,02,02,00,00,00,00,00,00,
1011291,00000373,false,Rx,0,8,C1,C1,78,F2,0C,97,80,06,
1016291,00000362,false,Rx,0,8,02,02,00,00,00,00,00,00,
1021291,00000733,false,Rx,0,8,42,00,42,00,0F,B0,A4,41,
1026291,00000374,false,Rx,0,8,B3,B9,35,FB,4A,48,40,30,
1031291,00000288,false,Rx,0,8,29,25,4F,38,19,43,01,1C,
1036291,00000362,false,Rx,0,8,02,02,00,00,00,00,00,00,
1041291,00000735,false,Rx,0,8,40,00,40,00,0F,B0,A4,3D,
1046291,00000374,false,Rx,0,8,B3,B9,35,FB,4A,48,40,30,
1051291,00000287,false,Rx,0,8,29,0B,28,F5,27,10,03,00,
1056291,00000362,false,Rx,0,8,02,02,00,00,00,00,00,00,
1061291,00000377,false,Rx,0,8,05,BE,01,B6,40,40,40,22,
1066291,00000370,false,Rx,0,8,05,BE,00,00,00,00,00,00,
1071291,00000287,false,Rx,0,8,28,F5,28,E0,27,10,03,00,
1076291,00000362,false,Rx,0,8,02,02,00,00,00,00,00,00,
1081291,0000075B,false,Rx,0,8,45,00,45,00,0F,B0,A4,41,
1086291,00000424,false,Rx,0,8,04,93,00,1F,09,4B,00,00,
1091291,00000569,false,Rx,0,8,AA,82,80,02,00,00,00,00,
1096291,00000362,false,Rx,0,8,02,02,00,00,00,00,00,00,
1101291,0000075B,false,Rx,0,8,45,00,45,00,0F,B0,A4,41,
1106291,00000370,false,Rx,0,8,05,BE,00,00,00,00,00,00,
1111291,00000287,false,Rx,0,8,28,CE,28,B9,27,10,03,00,
1116291,000006FA,false,Rx,0,8,00,4A,4D,46,58,44,47,47,
1121291,00000285,false,Rx,0,8,00,00,14,39,8F,FE,0C,10,
1126291,00000185,false,Rx,0,8,08,00,1D,00,00,00,00,00,
1131291,00000285,false,Rx,0,8,00,00,14,39,8F,FE,0C,10,
1136291,000006FA,false,Rx,0,8,01,32,57,45,5A,30,30,31,
1141291,00000285,false,Rx,0,8,00,00,14,39,8F,FE,0C,10,
1146291,00000185,false,Rx,0,8,08,00,1D,00,00,00,00,00,
1151291,00000285,false,Rx,0,8,00,00,14,39,8F,FE,0C,10,
1156291,0000028B,false,Rx,0,8,27,10,4E,20,0D,42,01,14,
1161291,00000285,false,Rx,0,8,00,00,14,39,8F,FE,0C,10,
1166291,0000028B,false,Rx,0,8,27,10,4E,20,0D,42,01,14,
1171291,00000285,false,Rx,0,8,00,00,14,39,8F,FE,0C,10,
1176291,0000056B,false,Rx,0,8,AA,02,00,00,80,AA,00,00,
1181291,00000362,false,Rx,0,8,02,02,00,00,00,00,00,00,
1186291,00000567,false,Rx,0,8,AA,02,00,00,80,AA,00,00,
1191291,00000286,false,Rx,0,8,00,00,00,3E,00,00,21,00,
1196291,00000287,false,Rx,0,8,28,CE,28,AC,27,10,03,00,
1201291,00000370,false,Rx,0,8,05,BE,00,00,00,00,00,00,
1206291,00000288,false,Rx,0,8,28,D0,4F,F9,19,43,01,1C,
1211291,00000362,false,Rx,0,8,02,02,00,00,00,00,00,00,
1216291,00000732,false,Rx,0,8,04,33,03,FE,64,64,42,42,
1221291,00000424,false,Rx,0,8,04,93,00,1F,09,4B,00,00,
1226291,00000565,false,Rx,0,8,AA,02,00,00,80,AA,00,00,
1231291,00000286,false,Rx,0,8,00,00,00,3D,00,00,21,00,
1236291,00000734,false,Rx,0,8,03,E8,03,E8,64,64,3C,3D,
1241291,00000362,false,Rx,0,8,02,02,00,00,00,00,00,00,
1246291,00000389,false,Rx,0,8,A1,00,00,40,40,40,00,00,
1251291,00000362,false,Rx,0,8,02,02,00,00,00,00,00,00,
1256291,0000075A,false,Rx,0,8,04,54,04,1A,64,65,40,41,
1261291,00000362,false,Rx,0,8,02,02,00,00,00,00,00,00,
1266291,00000285,false,Rx,0,8,00,00,14,39,8F,FE,0C,10,
1271291,00000362,false,Rx,0,8,02,02,00,00,00,00,00,00,
1276291,00000285,false,Rx,0,8,00,00,14,39,8F,FE,0C,10,
1281291,00000362,false,Rx,0,8,02,02,00,00,00,00,00,00,
1286291,00000285,false,Rx,0,8,00,00,14,39,8F,FE,0C,10,
1291291,00000362,false,Rx,0,8,02,02,00,00,00,00,00,00,
1296291,00000285,false,Rx,0,8,00,00,14,39,8F,FE,0C,10,
1301291,00000362,false,Rx,0,8,02,02,00,00,00,00,00,00,
1306291,00000285,false,Rx,0,8,00,00,14,39,8F,FE,0C,10,
1311291,00000362,false,Rx,0,8,02,02,00,00,00,00,00,00,
1316291,0000075A,false,Rx,0,8,04,54,04,1A,64,64,41,41,
1321291,00000362,false,Rx,0,8,02,02,00,00,00,00,00,00,
1326291,00000285,false,Rx,0,8,00,00,14,39,8F,FE,0C,10,
1331291,00000287,false,Rx,0,8,28,E4,28,C3,27,10,03,00,
1336291,00000370,false,Rx,0,8,05,BE,00,00,00,00,00,00,
1341291,0000028B,false,Rx,0,8,27,10,4E,20,0D,42,01,14,
1346291,00000285,false,Rx,0,8,00,00,14,39,8F,FE,0C,10,
1351291,00000289,false,Rx,0,8,28,C5,4F,9D,0D,42,11,1C,
1356291,00000370,false,Rx,0,8,05,BE,00,00,00,00,00,00,
1361291,00000373,false,Rx,0,8,C0,C0,76,AB,0C,92,80,06,
1366291,00000375,false,Rx,0,8,0F,0F,00,22,F2,00,00,00,
1371291,00000373,false,Rx,0,8,C0,C0,76,E5,0C,92,80,06,
1376291,00000362,false,Rx,0,8,02,02,00,00,00,00,00,00,
1381291,00000288,false,Rx,0,8,28,D3,50,99,0D,43,01,1C,
1386291,00000362,false,Rx,0,8,02,02,00,00,00,00,00,00,
1391291,00000288,false,Rx,0,8,28,D9,50,A2,0D,43,01,1C,
1396291,00000362,false,Rx,0,8,02,02,00,00,00,00,00,00,
1401291,00000285,false,Rx,0,8,00,00,14,39,8F,FE,0C,10,
1406291,00000375,false,Rx,0,8,0F,0F,00,22,F1,00,00,00,
1411291,00000298,false,Rx,0,8,45,42,40,52,40,00,00,40,
1416291,00000362,false,Rx,0,8,02,02,00,00,00,00,00,00,
1421291,0000038A,false,Rx,0,8,40,40,16,00,04,00,00,00,
1426291,00000362,false,Rx,0,8,02,02,00,00,00,00,00,00,
1431291,0000075A,false,Rx,0,8,04,51,04,17,63,65,41,41,
1436291,00000362,false,Rx,0,8,02,02,00,00,00,00,00,00,
1441291,0000038A,false,Rx,0,8,40,40,16,00,04,00,00,00,
1446291,00000375,false,Rx,0,8,0F,0F,00,22,F1,00,00,00,
1451291,0000075A,false,Rx,0,8,04,4F,04,16,64,64,41,42,
1456291,00000362,false,Rx,0,8,02,02,00,00,00,00,00,00,
1461291,0000038A,false,Rx,0,8,40,40,16,00,04,00,00,00,
1466291,00000362,false,Rx,0,8,02,02,00,00,00,00,00,00,
1471291,00000370,false,Rx,0,8,05,BE,00,00,00,00,00,00,
1476291,00000287,false,Rx,0,8,28,C8,28,9E,27,10,03,00,
1481291,0000038A,false,Rx,0,8,40,40,16,00,04,00,00,00,
1486291,00000287,false,Rx,0,8,28,C3,28,9B,27,10,03,00,
1491291,00000370,false,Rx,0,8,05,BE,00,00,00,00,00,00,
1496291,00000388,false,Rx,0,8,01,00,00,00,00,00,00,02,
1501291,0000038A,false,Rx,0,8,40,40,16,00,04,00,00,00,
1506291,00000287,false,Rx,0,8,28,B4,28,90,27,10,03,00,
1511291,00000370,false,Rx,0,8,05,BE,00,00,00,00,00,00,
1516291,0000028B,false,Rx,0,8,27,10,4E,20,0D,41,01,14,
1521291,0000038A,false,Rx,0,8,40,40,16,00,04,00,00,00,
1526291,00000289,false,Rx,0,8,28,76,4F,EF,0D,42,11,1C,
1531291,00000370,false,Rx,0,8,05,BE,00,00,00,00,00,00,
1536291,0000056F,false,Rx,0,8,2A,88,AA,2A,00,00,28,0A,
1541291,0000038A,false,Rx,0,8,40,40,16,00,04,00,00,00,
1546291,00000285,false,Rx,0,8,00,00,14,39,8F,FE,0C,10,
1551291,00000362,false,Rx,0,8,02,02,00,00,00,00,00,00,
1556291,00000373,false,Rx,0,8,C0,C0,77,8E,0C,92,80,06,
1561291,00000362,false,Rx,0,8,02,02,00,00,00,00,00,00,
1566291,00000288,false,Rx,0,8,28,54,51,2D,0D,43,01,1C,
1571291,00000362,false,Rx,0,8,02,02,00,00,00,00,00,00,
1576291,0000056C,false,Rx,0,8,2A,88,02,20,00,00,A8,AA,
1581291,00000362,false,Rx,0,8,02,02,00,00,00,00,00,00,
1586291,00000424,false,Rx,0,8,04,93,04,1F,09,4B,00,00,
1591291,00000362,false,Rx,0,8,02,02,00,00,00,00,00,00,
1596291,0000056C,false,Rx,0,8,2A,88,02,20,00,00,A8,AA,
1601291,00000362,false,Rx,0,8,02,02,00,00,00,00,00,00,
1606291,00000377,false,Rx,0,8,05,BE,01,58,40,40,40,22,
1611291,00000287,false,Rx,0,8,27,FB,27,DF,27,10,03,00,
1616291,00000666,false,Rx,0,8,00,00,00,00,00,00,00,00,
1621291,00000287,false,Rx,0,8,27,F5,27,D8,27,10,03,00,
1626291,0000075A,false,Rx,0,8,04,25,03,F7,64,65,41,42,
1631291,00000287,false,Rx,0,8,27,F2,27,D4,27,10,03,00,
1636291,000005A1,false,Rx,0,8,02,A2,AA,2A,A2,8A,82,A2,
1641291,00000287,false,Rx,0,8,27,EE,27,D0,27,10,03,00,
1646291,000005A1,false,Rx,0,8,02,A2,AA,2A,A2,8A,82,A2,
1651291,00000287,false,Rx,0,8,27,E6,27,C8,27,10,03,00,
1656291,000005A1,false,Rx,0,8,02,A2,AA,2A,A2,8A,82,A2,
1661291,00000287,false,Rx,0,8,27,D0,27,B6,27,10,03,00,
1666291,000005A1,false,Rx,0,8,02,A2,AA,2A,A2,8A,82,A2,
1671291,00000287,false,Rx,0,8,27,B0,27,9B,27,10,03,00,
1676291,000005A1,false,Rx,0,8,02,A2,AA,2A,A2,8A,82,A2,
1681291,00000285,false,Rx,0,8,00,00,14,39,8F,FE,0C,10,
1686291,00000371,false,Rx,0,8,30,00,00,00,00,00,00,00,
1691291,00000285,false,Rx,0,8,00,00,14,39,8F,FE,0C,10,
1696291,000005A1,false,Rx,0,8,02,A2,AA,2A,A2,8A,82,A2,
1701291,0000028B,false,Rx,0,8,27,10,4E,20,0D,42,01,14,
1706291,00000371,false,Rx,0,8,31,00,00,00,00,00,00,00,
1711291,00000566,false,Rx,0,8,22,8A,0A,A0,A8,A0,AA,8A,
1716291,000005A1,false,Rx,0,8,02,A2,AA,2A,A2,8A,82,A2,
1721291,00000566,false,Rx,0,8,22,8A,0A,A0,A8,A0,AA,8A,
1726291,0000066B,false,Rx,0,8,00,39,34,39,39,44,30,35,
1731291,00000373,false,Rx,0,8,C2,C1,7D,8C,0C,9B,80,06,
1736291,00000362,false,Rx,0,8,02,02,00,00,00,00,00,00,
1741291,00000732,false,Rx,0,8,03,EF,03,E9,64,65,42,43,
1746291,00000287,false,Rx,0,8,27,24,27,21,27,10,03,00,
1751291,00000564,false,Rx,0,8,22,8A,0A,AA,A8,A0,AA,8A,
1756291,00000287,false,Rx,0,8,27,1E,27,1C,27,10,03,00,
1761291,00000564,false,Rx,0,8,22,8A,0A,AA,A8,A0,AA,8A,
1766291,00000287,false,Rx,0,8,27,19,27,18,27,10,03,00,
1771291,00000568,false,Rx,0,8,00,02,80,0A,00,00,A8,AA,
1776291,00000287,false,Rx,0,8,27,16,27,15,27,10,03,00,
1781291,00000377,false,Rx,0,8,05,BE,01,45,40,40,40,22,
1786291,00000287,false,Rx,0,8,27,14,27,14,27,10,03,00,
1791291,00000564,false,Rx,0,8,22,8A,0A,AA,A8,A0,AA,8A,
1796291,00000287,false,Rx,0,8,27,13,27,13,27,10,03,00,
1801291,0000075A,false,Rx,0,8,03,EB,03,E9,64,64,41,42,
1806291,00000287,false,Rx,0,8,27,12,27,12,27,10,03,00,
1811291,000006FA,false,Rx,0,8,02,31,32,32,00,00,00,00,
1816291,00000285,false,Rx,0,8,00,00,14,39,8F,FE,0C,10,
1821291,0000075A,false,Rx,0,8,03,EB,03,E9,64,64,41,42,
1826291,00000285,false,Rx,0,8,00,00,14,39,8F,FE,0C,10,
1831291,000006FA,false,Rx,0,8,00,4A,4D,46,58,44,47,47,
1836291,00000285,false,Rx,0,8,00,00,14,39,8F,FE,0C,10,
1841291,0000075A,false,Rx,0,8,03,EA,03,E9,64,64,41,42,
1846291,00000285,false,Rx,0,8,00,00,14,39,8F,FE,0C,10,
1851291,000006FA,false,Rx,0,8,01,32,57,45,5A,30,30,31,
1856291,00000154,false,Rx,0,8,63,67,A0,69,0A,03,7A,B4,
1861291,0000075A,false,Rx,0,8,03,EA,03,E9,64,64,41,42,
1866291,00000289,false,Rx,0,8,27,10,50,30,0D,44,11,1C,
1871291,000006FA,false,Rx,0,8,02,31,32,32,00,00,00,00,
1876291,0000028B,false,Rx,0,8,27,10,4E,20,0D,43,01,14,
1881291,00000287,false,Rx,0,8,27,10,27,10,27,10,03,00,
1886291,00000286,false,Rx,0,8,00,00,00,3D,00,00,21,00,
1891291,00000287,false,Rx,0,8,27,10,27,10,27,10,03,00,
1896291,00000373,false,Rx,0,8,C2,C2,7E,C5,0C,9E,80,06,
1901291,00000362,false,Rx,0,8,02,02,00,00,00,00,00,00,
1906291,00000373,false,Rx,0,8,C2,C2,7E,C7,0C,9E,80,06,
1911291,00000362,false,Rx,0,8,02,02,00,00,00,00,00,00,
1916291,00000288,false,Rx,0,8,27,10,51,6D,0D,44,01,1C,
1921291,00000185,false,Rx,0,8,08,00,1D,00,00,00,00,00,
1926291,00000288,false,Rx,0,8,27,10,51,68,0D,44,01,1C,
1931291,00000362,false,Rx,0,8,02,02,00,00,00,00,00,00,
1936291,00000735,false,Rx,0,8,40,00,40,00,0F,B0,A4,3D,
1941291,00000185,false,Rx,0,8,08,00,1D,00,00,00,00,00,
1946291,00000664,false,Rx,0,8,02,83,06,32,F3,00,00,00,
1951291,00000285,false,Rx,0,8,00,00,14,39,8F,FE,0C,10,
1956291,00000377,false,Rx,0,8,05,BC,01,67,40,40,40,22,
1961291,00000285,false,Rx,0,8,00,00,14,39,8F,FE,0C,10,
1966291,00000569,false,Rx,0,8,AA,82,A2,02,00,00,00,00,
1971291,00000285,false,Rx,0,8,00,00,14,39,8F,FE,0C,10,
1976291,00000377,false,Rx,0,8,05,BE,01,76,40,40,40,22,
1981291,00000285,false,Rx,0,8,00,00,14,39,8F,FE,0C,10,
1986291,00000288,false,Rx,0,8,27,10,51,79,0D,44,01,1C,
1991291,00000424,false,Rx,0,8,04,93,04,1F,09,4B,00,00,
1996291,00000377,false,Rx,0,8,05,BE,01,67,40,40,40,22,
2001291,00000285,false,Rx,0,8,00,00,14,39,8F,FE,0C,10,
2006291,00000569,false,Rx,0,8,AA,82,A2,02,00,00,00,00,
2011291,00000285,false,Rx,0,8,00,00,14,39,90,FE,0C,10,
2016291,00000377,false,Rx,0,8,05,BE,01,40,40,40,40,22,
2021291,00000285,false,Rx,0,8,00,00,14,39,8F,FE,0C,10,
2026291,00000287,false,Rx,0,8,27,0E,27,0E,27,10,03,00,
2031291,00000370,false,Rx,0,8,05,BE,00,00,00,00,00,00,
2036291,00000287,false,Rx,0,8,27,0C,27,0D,27,10,03,00,
2041291,00000285,false,Rx,0,8,00,00,14,39,90,FE,0C,10,
2046291,00000287,false,Rx,0,8,27,0B,27,0C,27,10,03,00,
2051291,00000289,false,Rx,0,8,27,0E,50,83,0D,44,11,1C,
2056291,00000287,false,Rx,0,8,27,0B,27,0B,27,10,03,00,
2061291,00000567,false,Rx,0,8,AA,02,00,A8,A0,AA,00,00,
2066291,00000287,false,Rx,0,8,27,0A,27,0B,27,10,03,00,
2071291,0000056B,false,Rx,0,8,AA,02,00,00,80,AA,00,00,
2076291,00000287,false,Rx,0,8,27,09,27,0A,27,10,03,00,
2081291,00000373,false,Rx,0,8,C2,C2,7E,E7,0C,9E,80,06,
2086291,00000362,false,Rx,0,8,02,02,00,00,00,00,00,00,
2091291,00000732,false,Rx,0,8,03,E8,03,E9,64,64,41,42,
2096291,00000285,false,Rx,0,8,00,00,14,39,90,FE,0C,10,
2101291,00000565,false,Rx,0,8,AA,02,00,A8,A0,AA,00,00,
2106291,00000285,false,Rx,0,8,00,00,14,39,90,FE,0C,10,
2111291,00000288,false,Rx,0,8,27,02,51,A9,0D,44,01,1C,
2116291,00000285,false,Rx,0,8,00,00,14,39,90,FE,0C,10,
2121291,00000565,false,Rx,0,8,AA,02,00,A8,A0,AA,00,00,
2126291,00000424,false,Rx,0,8,04,93,04,1F,09,4C,00,00,
2131291,0000075A,false,Rx,0,8,03,E8,03,E9,64,64,40,40,
2136291,00000362,false,Rx,0,8,02,02,00,00,00,00,00,00,
2141291,00000389,false,Rx,0,8,A1,00,00,40,40,40,00,00,
2146291,00000362,false,Rx,0,8,02,02,00,00,00,00,00,00,
2151291,00000377,false,Rx,0,8,05,BE,01,4F,40,40,40,22,
2156291,00000362,false,Rx,0,8,02,02,00,00,00,00,00,00,
2161291,00000287,false,Rx,0,8,27,00,27,02,27,10,03,00,
2166291,00000370,false,Rx,0,8,05,BE,00,00,00,00,00,00,
2171291,00000287,false,Rx,0,8,26,FE,27,01,27,10,03,00,
2176291,00000362,false,Rx,0,8,02,02,00,00,00,00,00,00,
2181291,00000287,false,Rx,0,8,26,FD,27,00,27,10,03,00,
2186291,00000370,false,Rx,0,8,05,BE,00,00,00,00,00,00,
2191291,00000287,false,Rx,0,8,26,FD,26,FF,27,10,03,00,
2196291,00000362,false,Rx,0,8,02,02,00,00,00,00,00,00,
2201291,00000287,false,Rx,0,8,26,FC,26,FF,27,10,03,00,
2206291,00000370,false,Rx,0,8,05,BE,00,00,00,00,00,00,
2211291,00000287,false,Rx,0,8,26,FB,26,FE,27,10,03,00,
2216291,00000362,false,Rx,0,8,02,02,00,00,00,00,00,00,
2221291,00000287,false,Rx,0,8,26,FA,26,FD,27,10,03,00,
2226291,00000289,false,Rx,0,8,26,FE,50,CA,0D,44,11,1C,
2231291,00000285,false,Rx,0,8,00,00,14,39,90,FE,0C,10,
2236291,0000028B,false,Rx,0,8,27,10,4E,20,0D,43,01,14,
2241291,00000285,false,Rx,0,8,00,00,14,39,90,FE,0C,10,
2246291,00000299,false,Rx,0,8,42,41,42,42,41,00,00,00,
2251291,00000285,false,Rx,0,8,00,00,14,39,90,FE,0C,10,
2256291,00000373,false,Rx,0,8,C2,C2,7F,2E,0C,9F,80,06,
2261291,00000375,false,Rx,0,8,0F,0F,00,22,EE,00,00,00,
2266291,00000732,false,Rx,0,8,03,E7,03,E9,65,64,40,41,
2271291,00000362,false,Rx,0,8,02,02,00,00,00,00,00,00,
2276291,00000288,false,Rx,0,8,26,F5,51,EA,0D,44,01,1C,
2281291,00000362,false,Rx,0,8,02,02,00,00,00,00,00,00,
2286291,00000734,false,Rx,0,8,03,E8,03,E8,64,64,3C,3D,
2291291,00000362,false,Rx,0,8,02,02,00,00,00,00,00,00,
2296291,00000287,false,Rx,0,8,26,F3,26,F7,27,10,03,00,
2301291,00000370,false,Rx,0,8,05,BE,00,00,00,00,00,00,
2306291,0000075A,false,Rx,0,8,03,E2,03,EA,64,64,3F,40,
2311291,00000362,false,Rx,0,8,02,02,00,00,00,00,00,00,
2316291,0000038A,false,Rx,0,8,40,40,16,00,04,00,00,00,
2321291,00000370,false,Rx,0,8,05,BE,00,00,00,00,00,00,
2326291,00000377,false,Rx,0,8,05,BE,00,E2,40,40,41,22,
2331291,00000362,false,Rx,0,8,02,02,00,00,00,00,00,00,
2336291,0000038A,false,Rx,0,8,40,40,16,00,04,00,00,00,
2341291,00000370,false,Rx,0,8,05,BE,00,00,00,00,00,00,
2346291,00000377,false,Rx,0,8,05,BE,00,E7,41,40,41,22,
2351291,00000362,false,Rx,0,8,02,02,00,00,00,00,00,00,
2356291,00000424,false,Rx,0,8,04,93,04,1F,09,4C,00,00,
2361291,00000370,false,Rx,0,8,05,BE,00,00,00,00,00,00,
2366291,00000285,false,Rx,0,8,00,00,14,39,91,FE,0C,10,
2371291,00000362,false,Rx,0,8,02,02,00,00,00,00,00,00,
2376291,00000285,false,Rx,0,8,00,00,14,39,91,FE,0C,10,
2381291,00000371,false,Rx,0,8,30,00,00,00,00,00,00,00,
2386291,00000285,false,Rx,0,8,00,00,14,39,91,FE,0C,10,
2391291,00000388,false,Rx,0,8,01,00,00,00,00,00,00,02,
2396291,00000285,false,Rx,0,8,00,00,14,39,91,FE,0C,10,
2401291,00000289,false,Rx,0,8,26,EF,50,FD,0D,44,11,1C,
2406291,00000285,false,Rx,0,8,00,00,14,39,91,FE,0C,10,
2411291,0000028B,false,Rx,0,8,27,10,4E,20,0D,43,01,14,
2416291,00000285,false,Rx,0,8,00,00,14,39,91,FE,0C,10,
2421291,0000056F,false,Rx,0,8,2A,88,AA,2A,00,00,28,0A,
2426291,00000285,false,Rx,0,8,00,00,14,39,91,FE,0C,10,
2431291,00000373,false,Rx,0,8,C2,C2,7F,93,0C,9F,80,06,
2436291,00000370,false,Rx,0,8,05,BE,00,00,00,00,00,00,
2441291,00000373,false,Rx,0,8,C2,C2,7F,97,0C,A0,80,06,
2446291,00000362,false,Rx,0,8,02,02,00,00,00,00,00,00,
2451291,00000288,false,Rx,0,8,26,E8,52,14,0D,44,01,1C,
2456291,00000362,false,Rx,0,8,02,02,00,00,00,00,00,00,
2461291,00000734,false,Rx,0,8,03,E8,03,E8,64,64,3C,3D,
2466291,00000362,false,Rx,0,8,02,02,00,00,00,00,00,00,
2471291,0000056C,false,Rx,0,8,2A,88,02,20,00,00,A8,AA,
2476291,00000362,false,Rx,0,8,02,02,00,00,00,00,00,00,
2481291,0000075A,false,Rx,0,8,03,E0,03,EA,64,64,3F,3F,
2486291,00000362,false,Rx,0,8,02,02,00,00,00,00,00,00,
2491291,00000563,false,Rx,0,8,AA,AA,AA,AA,A2,2A,00,00,
2496291,00000362,false,Rx,0,8,02,02,00,00,00,00,00,00,
2501291,00000377,false,Rx,0,8,05,BE,00,E2,41,40,41,22,
2506291,000006FA,false,Rx,0,8,01,32,57,45,5A,30,30,31,
2511291,00000285,false,Rx,0,8,00,00,14,39,91,FE,0C,10,
2516291,00000362,false,Rx,0,8,02,02,00,00,00,00,00,00,
2521291,000005A1,false,Rx,0,8,22,A2,AA,2A,A2,8A,82,A2,
2526291,000006FA,false,Rx,0,8,02,31,32,32,00,00,00,00,
2531291,000005A1,false,Rx,0,8,22,A2,AA,2A,A2,8A,82,A2,
2536291,00000362,false,Rx,0,8,02,02,00,00,00,00,00,00,
2541291,000005A1,false,Rx,0,8,22,A2,AA,2A,A2,8A,82,A2,
2546291,000006FA,false,Rx,0,8,00,4A,4D,46,58,44,47,47,
2551291,000005A1,false,Rx,0,8,22,A2,AA,2A,A2,8A,82,A2,
2556291,00000362,false,Rx,0,8,02,02,00,00,00,00,00,00,
2561291,000005A1,false,Rx,0,8,22,A2,AA,2A,A2,8A,82,A2,
2566291,000006FA,false,Rx,0,8,01,32,57,45,5A,30,30,31,
2571291,00000370,false,Rx,0,8,05,BE,00,00,00,00,00,00,
2576291,00000289,false,Rx,0,8,26,EA,51,20,0D,44,11,1C,
2581291,00000286,false,Rx,0,8,00,00,00,3D,00,00,21,00,
2586291,0000028B,false,Rx,0,8,27,10,4E,20,0D,43,01,14,
2591291,00000370,false,Rx,0,8,05,BE,00,00,00,00,00,00,
2596291,0000056A,false,Rx,0,8,22,8A,0A,A0,A8,A0,AA,8A,
2601291,00000286,false,Rx,0,8,00,00,00,3D,00,00,21,00,
2606291,00000373,false,Rx,0,8,C2,C2,7F,B1,0C,A0,80,06,
2611291,00000370,false,Rx,0,8,05,BE,00,00,00,00,00,00,
2616291,00000732,false,Rx,0,8,03,E2,03,EA,64,64,40,40,
2621291,00000362,false,Rx,0,8,02,02,00,00,00,00,00,00,
2626291,00000288,false,Rx,0,8,26,E5,52,49,0D,44,01,1C,
2631291,00000362,false,Rx,0,8,02,02,00,00,00,00,00,00,
2636291,00000564,false,Rx,0,8,22,8A,0A,AA,A8,A0,AA,8A,
2641291,00000362,false,Rx,0,8,02,02,00,00,00,00,00,00,
2646291,00000285,false,Rx,0,8,00,00,14,39,91,FE,0C,10,
2651291,00000362,false,Rx,0,8,02,02,00,00,00,00,00,00,
2656291,0000075A,false,Rx,0,8,03,DF,03,EA,64,64,3E,3F,
2661291,00000362,false,Rx,0,8,02,02,00,00,00,00,00,00,
2666291,00000564,false,Rx,0,8,22,8A,0A,AA,A8,A0,AA,8A,
2671291,00000362,false,Rx,0,8,02,02,00,00,00,00,00,00,
2676291,00000377,false,Rx,0,8,05,BE,00,E7,41,40,41,22,
2681291,00000362,false,Rx,0,8,02,02,00,00,00,00,00,00,
2686291,00000568,false,Rx,0,8,00,02,80,0A,00,00,A8,AA,
2691291,00000362,false,Rx,0,8,02,02,00,00,00,00,00,00,
2696291,00000377,false,Rx,0,8,05,BE,00,DD,41,40,41,22,
2701291,00000362,false,Rx,0,8,02,02,00,00,00,00,00,00,
2706291,00000665,false,Rx,0,8,02,00,00,00,00,00,00,00,
2711291,00000287,false,Rx,0,8,26,E4,26,E4,27,10,03,00,
2716291,00000377,false,Rx,0,8,05,BE,00,EC,41,40,41,22,
2721291,00000287,false,Rx,0,8,26,E4,26,E4,27,10,03,00,
2726291,00000370,false,Rx,0,8,05,BE,00,00,00,00,00,00,
2731291,00000154,false,Rx,0,8,6B,67,A0,69,0B,03,7A,B4,
2736291,00000185,false,Rx,0,8,08,00,1D,00,00,00,00,00,
2741291,00000287,false,Rx,0,8,26,E7,26,E8,27,10,03,00,
2746291,00000370,false,Rx,0,8,05,BE,00,00,00,00,00,00,
2751291,00000154,false,Rx,0,8,6B,67,A0,69,0B,03,7A,B4,
2756291,00000185,false,Rx,0,8,08,00,1D,00,00,00,00,00,
2761291,0000028B,false,Rx,0,8,27,10,4E,20,0D,43,01,14,
2766291,00000370,false,Rx,0,8,05,BE,00,00,00,00,00,00,
2771291,00000732,false,Rx,0,8,03,E6,03,E9,66,64,40,40,
2776291,00000185,false,Rx,0,8,08,00,1D,00,00,00,00,00,
2781291,00000285,false,Rx,0,8,00,00,14,39,91,FE,0C,10,
2786291,00000370,false,Rx,0,8,05,BE,00,00,00,00,00,00,
2791291,00000373,false,Rx,0,8,C2,C2,7E,64,0C,9F,80,06,
2796291,00000374,false,Rx,0,8,B3,B9,4A,FE,4A,48,40,30,
2801291,00000288,false,Rx,0,8,27,7A,52,DB,0D,44,01,1C,
2806291,00000362,false,Rx,0,8,02,02,00,00,00,00,00,00,
2811291,00000734,false,Rx,0,8,03,E8,03,E8,64,64,3C,3D,
2816291,00000362,false,Rx,0,8,02,02,00,00,00,00,00,00,
2821291,00000288,false,Rx,0,8,27,67,52,AC,0D,44,01,1C,
2826291,00000362,false,Rx,0,8,02,02,00,00,00,00,00,00,
2831291,00000735,false,Rx,0,8,40,00,40,00,0F,B0,A4,3D,
2836291,00000362,false,Rx,0,8,02,02,00,00,00,00,00,00,
2841291,00000569,false,Rx,0,8,AA,82,A2,02,00,00,00,00,
2846291,00000362,false,Rx,0,8,02,02,00,00,00,00,00,00,
2851291,00000377,false,Rx,0,8,05,BE,00,D8,41,40,41,22,
2856291,00000287,false,Rx,0,8,27,83,27,A6,27,10,03,00,
2861291,00000370,false,Rx,0,8,05,BE,00,00,00,00,00,00,
2866291,00000287,false,Rx,0,8,27,87,27,AB,27,10,03,00,
2871291,00000377,false,Rx,0,8,05,BE,00,D8,41,40,41,22,
2876291,00000287,false,Rx,0,8,27,8B,27,AD,27,10,03,00,
2881291,00000569,false,Rx,0,8,AA,82,A2,02,00,00,00,00,
2886291,00000287,false,Rx,0,8,27,8C,27,AC,27,10,03,00,
2891291,00000377,false,Rx,0,8,05,BE,00,D8,41,40,41,22,
2896291,00000424,false,Rx,0,8,04,93,04,1F,09,4C,00,00,
2901291,00000370,false,Rx,0,8,05,BE,00,00,00,00,00,00,
2906291,00000287,false,Rx,0,8,27,86,27,9E,27,10,03,00,
2911291,00000377,false,Rx,0,8,05,BE,00,D8,41,40,41,22,
2916291,00000285,false,Rx,0,8,00,00,14,39,91,FE,0C,10,
2921291,00000569,false,Rx,0,8,AA,82,A2,02,00,00,00,00,
2926291,00000285,false,Rx,0,8,00,00,14,39,91,FE,0C,10,
2931291,00000377,false,Rx,0,8,05,BE,00,D3,41,40,41,22,
2936291,00000289,false,Rx,0,8,27,82,51,C1,0D,43,11,1C,
2941291,00000664,false,Rx,0,8,02,83,06,32,F3,00,00,00,
2946291,0000028B,false,Rx,0,8,27,10,4E,20,0D,42,01,14,
2951291,00000377,false,Rx,0,8,05,BE,00,D3,41,40,41,22,
2956291,0000056B,false,Rx,0,8,AA,02,00,00,80,AA,00,00,
2961291,00000569,false,Rx,0,8,AA,82,A2,02,00,00,00,00,
2966291,00000373,false,Rx,0,8,C1,C1,7B,17,0C,98,80,06,
2971291,00000377,false,Rx,0,8,05,BE,00,DD,41,40,41,22,
2976291,00000373,false,Rx,0,8,C1,C1,7B,31,0C,98,80,06,
2981291,00000362,false,Rx,0,8,02,02,00,00,00,00,00,00,
2986291,00000288,false,Rx,0,8,27,6F,53,60,0D,43,01,1C,
2991291,00000287,false,Rx,0,8,27,73,27,6F,27,10,03,00,
2996291,00000370,false,Rx,0,8,05,BE,00,00,00,00,00,00,
3001291,00000287,false,Rx,0,8,27,72,27,6B,27,10,03,00,
3006291,00000565,false,Rx,0,8,AA,02,00,A8,A0,AA,00,00,
3011291,00000362,false,Rx,0,8,02,02,00,00,00,00,00,00,
3016291,00000565,false,Rx,0,8,AA,02,00,A8,A0,AA,00,00,
3021291,00000362,false,Rx,0,8,02,02,00,00,00,00,00,00,
3026291,00000377,false,Rx,0,8,05,BE,00,D3,41,40,41,22,
3031291,00000424,false,Rx,0,8,04,93,04,1F,09,4C,00,00,
3036291,00000389,false,Rx,0,8,A1,00,00,40,40,40,00,00,
3041291,00000362,false,Rx,0,8,02,02,00,00,00,00,00,00,
3046291,00000377,false,Rx,0,8,05,BE,00,D3,41,40,41,22,
3051291,00000362,false,Rx,0,8,02,02,00,00,00,00,00,00,
3056291,00000371,false,Rx,0,8,30,00,00,00,00,00,00,00,
3061291,00000285,false,Rx,0,8,00,00,14,39,91,FE,0C,10,
3066291,00000377,false,Rx,0,8,05,BE,00,D3,41,40,41,22,
3071291,00000285,false,Rx,0,8,00,00,14,39,91,FE,0C,10,
3076291,00000371,false,Rx,0,8,30,00,00,00,00,00,00,00,
3081291,00000285,false,Rx,0,8,00,00,14,39,91,FE,0C,10,
3086291,00000377,false,Rx,0,8,05,BE,00,D3,41,40,41,22,
3091291,00000677,false,Rx,0,8,00,00,00,00,00,00,00,00,
3096291,00000371,false,Rx,0,8,30,00,00,00,00,00,00,00,
3101291,00000285,false,Rx,0,8,00,00,14,39,91,FE,0C,10,
3106291,00000377,false,Rx,0,8,05,BE,00,D3,41,40,41,22,
3111291,00000289,false,Rx,0,8,27,5A,52,4B,0D,43,11,1C,
3116291,00000371,false,Rx,0,8,30,00,00,00,00,00,00,00,
3121291,0000028B,false,Rx,0,8,27,10,4E,20,0D,42,01,14,
3126291,00000424,false,Rx,0,8,04,93,04,1F,09,4C,00,00,
3131291,0000029A,false,Rx,0,8,01,32,57,45,5A,30,30,31,
3136291,00000287,false,Rx,0,8,27,5C,27,54,27,10,03,00,
3141291,0000029B,false,Rx,0,8,40,3D,41,3D,40,21,1C,40,
3146291,00000287,false,Rx,0,8,27,59,27,51,27,10,03,00,
3151291,00000373,false,Rx,0,8,C1,C1,7B,F0,0C,99,80,06,
3156291,00000362,false,Rx,0,8,02,02,00,00,00,00,00,00,
3161291,00000734,false,Rx,0,8,03,E8,03,E8,64,64,3C,3D,
3166291,00000362,false,Rx,0,8,02,02,00,00,00,00,00,00,
3171291,00000288,false,Rx,0,8,27,52,54,19,0D,43,01,1C,
3176291,00000362,false,Rx,0,8,02,02,00,00,00,00,00,00,
3181291,00000298,false,Rx,0,8,45,40,41,40,40,00,00,40,
3186291,00000362,false,Rx,0,8,02,02,00,00,00,00,00,00,
3191291,00000288,false,Rx,0,8,27,4B,54,2C,0D,43,01,1C,
3196291,00000285,false,Rx,0,8,00,00,14,39,91,FE,0C,10,
3201291,000006FA,false,Rx,0,8,00,4A,4D,46,58,44,47,47,
3206291,00000285,false,Rx,0,8,00,00,14,39,91,FE,0C,10,
3211291,0000038A,false,Rx,0,8,40,40,16,00,04,00,00,00,
3216291,00000285,false,Rx,0,8,00,00,14,39,91,FE,0C,10,
3221291,00000377,false,Rx,0,8,05,BE,00,D3,41,40,41,22,
3226291,00000285,false,Rx,0,8,00,00,14,39,91,FE,0C,10,
3231291,0000038A,false,Rx,0,8,40,40,16,00,04,00,00,00,
3236291,00000285,false,Rx,0,8,00,00,14,39,91,FE,0C,10,
3241291,00000377,false,Rx,0,8,05,BE,00,D3,41,40,41,22,
3246291,00000285,false,Rx,0,8,00,00,14,39,91,FE,0C,10,
3251291,0000038A,false,Rx,0,8,40,40,16,00,04,00,00,00,
3256291,00000285,false,Rx,0,8,00,00,14,39,91,FE,0C,10,
3261291,00000424,false,Rx,0,8,04,93,04,1F,09,4C,00,00,
3266291,00000370,false,Rx,0,8,05,BE,00,00,00,00,00,00,
3271291,00000287,false,Rx,0,8,27,3D,27,38,27,10,03,00,
3276291,00000286,false,Rx,0,8,00,00,00,3D,00,00,21,00,
3281291,00000287,false,Rx,0,8,27,3B,27,37,27,10,03,00,
3286291,00000388,false,Rx,0,8,01,00,00,00,00,00,00,02,
3291291,00000287,false,Rx,0,8,27,39,27,35,27,10,03,00,
3296291,00000289,false,Rx,0,8,27,3C,52,C9,0D,43,11,1C,
3301291,00000287,false,Rx,0,8,27,37,27,34,27,10,03,00,
3306291,0000056D,false,Rx,0,8,2A,00,00,20,00,00,A8,AA,
3311291,00000287,false,Rx,0,8,27,36,27,33,27,10,03,00,
3316291,0000056F,false,Rx,0,8,2A,88,AA,2A,00,00,28,0A,
3321291,00000287,false,Rx,0,8,27,35,27,33,27,10,03,00,
3326291,00000373,false,Rx,0,8,C2,C1,7D,34,0C,9B,80,06,
3331291,00000287,false,Rx,0,8,27,35,27,35,27,10,03,00,
3336291,00000732,false,Rx,0,8,03,F0,03,EB,64,64,40,40,
3341291,00000362,false,Rx,0,8,02,02,00,00,00,00,00,00,
3346291,0000056C,false,Rx,0,8,2A,88,02,20,00,00,A8,AA,
3351291,00000362,false,Rx,0,8,02,02,00,00,00,00,00,00,
3356291,0000056C,false,Rx,0,8,2A,88,02,20,00,00,A8,AA,
3361291,00000362,false,Rx,0,8,02,02,00,00,00,00,00,00,
3366291,0000056C,false,Rx,0,8,2A,88,02,20,00,00,A8,AA,
3371291,00000362,false,Rx,0,8,02,02,00,00,00,00,00,00,
3376291,0000075A,false,Rx,0,8,03,FE,03,ED,64,64,3F,3F,
3381291,00000362,false,Rx,0,8,02,02,00,00,00,00,00,00,
3386291,0000056C,false,Rx,0,8,2A,88,02,20,00,00,A8,AA,
3391291,00000362,false,Rx,0,8,02,02,00,00,00,00,00,00,
3396291,00000377,false,Rx,0,8,05,BE,00,D3,41,40,41,22,
3401291,00000362,false,Rx,0,8,02,02,00,00,00,00,00,00,
3406291,00000287,false,Rx,0,8,27,7D,27,88,27,10,03,00,
3411291,00000362,false,Rx,0,8,02,02,00,00,00,00,00,00,
3416291,000005A1,false,Rx,0,8,2A,A2,AA,2A,A2,8A,82,A2,
3421291,00000370,false,Rx,0,8,05,BE,00,00,00,00,00,00,
3426291,000005A1,false,Rx,0,8,2A,A2,AA,2A,A2,8A,82,A2,
3431291,00000362,false,Rx,0,8,02,02,00,00,00,00,00,00,
3436291,000005A1,false,Rx,0,8,2A,A2,AA,2A,A2,8A,82,A2,
3441291,00000370,false,Rx,0,8,05,BE,00,00,00,00,00,00,
3446291,000005A1,false,Rx,0,8,2A,A2,AA,2A,A2,8A,82,A2,
3451291,00000362,false,Rx,0,8,02,02,00,00,00,00,00,00,
3456291,000005A1,false,Rx,0,8,2A,A2,AA,2A,A2,8A,82,A2,
3461291,00000370,false,Rx,0,8,05,BE,00,00,00,00,00,00,
3466291,000005A1,false,Rx,0,8,2A,A2,AA,2A,A2,8A,82,A2,
3471291,00000289,false,Rx,0,8,27,9F,53,51,0D,43,11,1C,
3476291,00000285,false,Rx,0,8,00,00,14,39,91,FE,0C,10,
3481291,00000566,false,Rx,0,8,22,8A,0A,A0,A8,A0,AA,8A,
3486291,00000285,false,Rx,0,8,00,00,14,39,91,FE,0C,10,
3491291,00000732,false,Rx,0,8,04,04,03,F0,64,63,40,40,
3496291,00000285,false,Rx,0,8,00,00,14,39,91,FE,0C,10,
3501291,00000373,false,Rx,0,8,C1,C0,78,C3,0C,94,80,06,
3506291,00000285,false,Rx,0,8,00,00,14,39,91,FE,0C,10,
3511291,00000732,false,Rx,0,8,04,05,03,F0,64,63,40,40,
3516291,0000066C,false,Rx,0,8,01,9B,DE,18,73,00,00,00,
3521291,00000288,false,Rx,0,8,27,7A,55,72,0D,43,01,1C,
3526291,00000362,false,Rx,0,8,02,02,00,00,00,00,00,00,
3531291,00000734,false,Rx,0,8,03,E8,03,E8,64,64,3C,3D,
3536291,00000362,false,Rx,0,8,02,02,00,00,00,00,00,00,
3541291,00000287,false,Rx,0,8,27,7A,27,A1,27,10,03,00,
3546291,00000362,false,Rx,0,8,02,02,00,00,00,00,00,00,
3551291,00000287,false,Rx,0,8,27,79,27,A1,27,10,03,00,
3556291,00000370,false,Rx,0,8,05,BE,00,00,00,00,00,00,
3561291,00000568,false,Rx,0,8,00,02,80,0A,00,00,A8,AA,
3566291,00000362,false,Rx,0,8,02,02,00,00,00,00,00,00,
3571291,0000075A,false,Rx,0,8,04,07,03,ED,63,64,3F,3F,
3576291,00000370,false,Rx,0,8,05,BE,00,00,00,00,00,00,
3581291,00000287,false,Rx,0,8,27,74,27,A1,27,10,03,00,
3586291,00000362,false,Rx,0,8,02,02,00,00,00,00,00,00,
3591291,00000377,false,Rx,0,8,05,BE,00,D3,41,40,41,22,
3596291,00000370,false,Rx,0,8,05,BE,00,00,00,00,00,00,
3601291,00000568,false,Rx,0,8,00,02,80,0A,00,00,A8,AA,
3606291,00000362,false,Rx,0,8,02,02,00,00,00,00,00,00,
3611291,00000285,false,Rx,0,8,00,00,14,39,91,FE,0C,10,
3616291,00000362,false,Rx,0,8,02,02,00,00,00,00,00,00,
3621291,00000285,false,Rx,0,8,00,00,14,39,91,FE,0C,10,
3626291,00000154,false,Rx,0,8,6A,67,A0,69,0B,03,7A,B4,
3631291,00000285,false,Rx,0,8,00,00,14,39,91,FE,0C,10,
3636291,00000362,false,Rx,0,8,02,02,00,00,00,00,00,00,
3641291,00000285,false,Rx,0,8,00,00,14,39,91,FE,0C,10,
3646291,00000289,false,Rx,0,8,27,9F,53,DB,0D,43,11,1C,
3651291,00000285,false,Rx,0,8,00,00,14,39,91,FE,0C,10,
3656291,0000028B,false,Rx,0,8,27,10,4E,20,0D,42,01,14,
3661291,00000285,false,Rx,0,8,00,00,14,39,91,FE,0C,10,
3666291,00000732,false,Rx,0,8,04,04,03,F2,65,62,40,40,
3671291,00000374,false,Rx,0,8,B3,B9,55,FE,4A,48,40,30,
3676291,00000373,false,Rx,0,8,C1,C0,78,FD,0C,93,80,06,
3681291,00000285,false,Rx,0,8,00,00,14,39,91,FE,0C,10,
3686291,00000287,false,Rx,0,8,27,65,27,9D,27,10,03,00,
3691291,00000370,false,Rx,0,8,05,BE,00,00,00,00,00,00,
3696291,00000288,false,Rx,0,8,27,61,56,1D,0D,43,01,1C,
3701291,00000362,false,Rx,0,8,02,02,00,00,00,00,00,00,
3706291,00000735,false,Rx,0,8,40,00,40,00,0F,B0,A4,3D,
3711291,00000362,false,Rx,0,8,02,02,00,00,00,00,00,00,
3716291,00000288,false,Rx,0,8,27,61,56,2E,0D,43,01,1C,
3721291,00000362,false,Rx,0,8,02,02,00,00,00,00,00,00,
3726291,0000075B,false,Rx,0,8,45,00,45,00,0F,B0,A4,40,
3731291,00000362,false,Rx,0,8,02,02,00,00,00,00,00,00,
3736291,00000288,false,Rx,0,8,27,65,56,45,0D,43,01,1C,
3741291,00000362,false,Rx,0,8,02,02,00,00,00,00,00,00,
3746291,00000377,false,Rx,0,8,05,BE,00,D3,41,40,41,22,
3751291,00000371,false,Rx,0,8,30,00,00,00,00,00,00,00,
3756291,00000285,false,Rx,0,8,00,00,14,39,91,FE,0C,10,
3761291,00000362,false,Rx,0,8,02,02,00,00,00,00,00,00,
3766291,00000285,false,Rx,0,8,00,00,14,39,91,FE,0C,10,
3771291,00000371,false,Rx,0,8,30,00,00,00,00,00,00,00,
3776291,00000285,false,Rx,0,8,00,00,14,39,91,FE,0C,10,
3781291,00000362,false,Rx,0,8,02,02,00,00,00,00,00,00,
3786291,00000377,false,Rx,0,8,05,BE,00,D3,41,41,41,22,
3791291,00000371,false,Rx,0,8,30,00,00,00,00,00,00,00,
3796291,00000569,false,Rx,0,8,AA,82,A2,02,00,00,00,00,
3801291,00000424,false,Rx,0,8,04,93,04,1F,09,4C,00,00,
3806291,00000377,false,Rx,0,8,05,BE,00,D3,41,41,41,22,
3811291,00000371,false,Rx,0,8,30,00,00,00,00,00,00,00,
3816291,00000285,false,Rx,0,8,00,00,14,39,91,FE,0C,10,
3821291,00000287,false,Rx,0,8,27,60,27,96,27,10,03,00,
3826291,00000370,false,Rx,0,8,05,BE,00,00,00,00,00,00,
3831291,0000028B,false,Rx,0,8,27,10,4E,20,0D,42,01,14,
3836291,00000664,false,Rx,0,8,02,83,06,32,F3,00,00,00,
3841291,00000567,false,Rx,0,8,AA,02,00,A8,A0,AA,00,00,
3846291,00000370,false,Rx,0,8,05,BE,00,00,00,00,00,00,
3851291,0000056B,false,Rx,0,8,AA,02,00,00,80,AA,00,00,
3856291,00000285,false,Rx,0,8,00,00,14,39,91,FE,0C,10,
3861291,00000732,false,Rx,0,8,04,03,03,EE,64,65,40,41,
3866291,00000370,false,Rx,0,8,05,BE,00,00,00,00,00,00,
3871291,00000288,false,Rx,0,8,27,62,56,BE,0D,43,01,1C,
3876291,00000569,false,Rx,0,8,AA,82,A2,02,00,00,00,00,
3881291,00000288,false,Rx,0,8,27,5C,56,C5,0D,43,01,1C,
3886291,00000362,false,Rx,0,8,02,02,00,00,00,00,00,00,
3891291,00000285,false,Rx,0,8,00,00,14,39,91,FE,0C,10,
3896291,00000362,false,Rx,0,8,02,02,00,00,00,00,00,00,
3901291,00000565,false,Rx,0,8,AA,02,00,A8,A0,AA,00,00,
3906291,00000362,false,Rx,0,8,02,02,00,00,00,00,00,00,
3911291,00000565,false,Rx,0,8,AA,02,00,A8,A0,AA,00,00,
3916291,000006FA,false,Rx,0,8,00,4A,4D,46,58,44,47,47,
3921291,00000377,false,Rx,0,8,05,BE,00,D3,41,41,41,22,
3926291,00000362,false,Rx,0,8,02,02,00,00,00,00,00,00,
3931291,00000389,false,Rx,0,8,A1,00,00,40,40,40,00,00,
3936291,000006FA,false,Rx,0,8,01,32,57,45,5A,30,30,31,
3941291,00000377,false,Rx,0,8,05,BE,00,D3,41,41,41,22,
3946291,00000362,false,Rx,0,8,02,02,00,00,00,00,00,00,
3951291,00000389,false,Rx,0,8,A1,00,00,40,40,40,00,00,
3956291,00000287,false,Rx,0,8,27,55,27,84,27,10,03,00,
3961291,00000370,false,Rx,0,8,05,BE,00,00,00,00,00,00,
3966291,00000287,false,Rx,0,8,27,53,27,80,27,10,03,00,
3971291,00000286,false,Rx,0,8,00,00,00,3D,00,00,21,00,
3976291,00000287,false,Rx,0,8,27,52,27,7E,27,10,03,00,
3981291,00000370,false,Rx,0,8,05,BE,00,00,00,00,00,00,
3986291,00000677,false,Rx,0,8,00,00,00,00,00,00,00,00,
3991291,00000286,false,Rx,0,8,00,00,00,3D,00,00,21,00,
3996291,00000287,false,Rx,0,8,27,51,27,7D,27,10,03,00,
4001291,00000370,false,Rx,0,8,05,BE,00,00,00,00,00,00,
4006291,0000028B,false,Rx,0,8,27,10,4E,20,0D,42,01,14,
4011291,00000286,false,Rx,0,8,00,00,00,3D,00,00,21,00,
4016291,00000299,false,Rx,0,8,42,41,43,45,41,00,00,00,
4021291,00000370,false,Rx,0,8,05,BE,00,00,00,00,00,00,
4026291,00000285,false,Rx,0,8,00,00,14,39,91,FE,0C,10,
4031291,00000424,false,Rx,0,8,04,93,04,1F,09,4C,00,00,
4036291,0000029B,false,Rx,0,8,40,3D,41,3D,40,21,1C,40,
4041291,00000370,false,Rx,0,8,05,BE,00,00,00,00,00,00,
4046291,00000373,false,Rx,0,8,C1,C0,7A,89,0C,94,80,06,
4051291,00000375,false,Rx,0,8,0F,0F,00,22,E7,00,00,00,
4056291,00000288,false,Rx,0,8,27,3B,57,40,0D,43,01,1C,
4061291,00000362,false,Rx,0,8,02,02,00,00,00,00,00,00,
4066291,00000288,false,Rx,0,8,27,46,57,58,0D,43,01,1C,
4071291,00000362,false,Rx,0,8,02,02,00,00,00,00,00,00,
4076291,00000298,false,Rx,0,8,45,40,41,3F,40,00,00,40,
4081291,00000362,false,Rx,0,8,02,02,00,00,00,00,00,00,
4086291,00000288,false,Rx,0,8,27,47,57,5F,0D,43,01,1C,
4091291,00000362,false,Rx,0,8,02,02,00,00,00,00,00,00,
4096291,00000370,false,Rx,0,8,05,BE,00,00,00,00,00,00,
4101291,00000287,false,Rx,0,8,27,47,27,6B,27,10,03,00,
4106291,0000038A,false,Rx,0,8,40,40,16,00,04,00,00,00,
4111291,00000287,false,Rx,0,8,27,46,27,6A,27,10,03,00,
4116291,00000377,false,Rx,0,8,05,BE,00,D3,41,41,41,22,
4121291,00000287,false,Rx,0,8,27,45,27,69,27,10,03,00,
4126291,0000038A,false,Rx,0,8,40,40,16,00,04,00,00,00,
4131291,00000287,false,Rx,0,8,27,45,27,68,27,10,03,00,
4136291,00000377,false,Rx,0,8,05,BE,00,D3,41,41,41,22,
4141291,00000287,false,Rx,0,8,27,45,27,69,27,10,03,00,
4146291,0000038A,false,Rx,0,8,40,40,16,00,04,00,00,00,
4151291,00000287,false,Rx,0,8,27,46,27,6A,27,10,03,00,
4156291,00000377,false,Rx,0,8,05,BE,00,D3,41,41,41,22,
4161291,00000388,false,Rx,0,8,01,00,00,00,00,00,00,02,
4166291,00000424,false,Rx,0,8,04,93,04,1F,09,4C,00,00,
4171291,00000285,false,Rx,0,8,00,00,14,39,91,FE,0C,10,
4176291,00000377,false,Rx,0,8,05,BE,00,D3,41,41,41,22,
4181291,00000289,false,Rx,0,8,27,66,55,05,0D,43,11,1C,
4186291,0000038A,false,Rx,0,8,40,40,16,00,04,00,00,00,
4191291,0000056D,false,Rx,0,8,2A,00,00,20,00,00,A8,AA,
4196291,00000377,false,Rx,0,8,05,BE,00,D3,41,41,41,22,
4201291,0000056F,false,Rx,0,8,2A,88,AA,2A,00,00,28,0A,
4206291,00000424,false,Rx,0,8,04,93,04,1F,09,4C,00,00,
4211291,00000373,false,Rx,0,8,C1,C0,7A,A0,0C,95,80,06,
4216291,00000377,false,Rx,0,8,05,BE,00,D3,41,41,41,22,
4221291,00000373,false,Rx,0,8,C1,C0,7A,CF,0C,95,80,06,
4226291,0000038A,false,Rx,0,8,40,40,16,00,04,00,00,00,
4231291,00000288,false,Rx,0,8,27,3F,57,BA,0D,43,01,1C,
4236291,00000362,false,Rx,0,8,02,02,00,00,00,00,00,00,
4241291,0000056C,false,Rx,0,8,2A,88,02,20,00,00,A8,AA,
4246291,00000362,false,Rx,0,8,02,02,00,00,00,00,00,00,
4251291,0000056C,false,Rx,0,8,2A,88,02,20,00,00,A8,AA,
4256291,00000362,false,Rx,0,8,02,02,00,00,00,00,00,00,
4261291,0000056C,false,Rx,0,8,2A,88,02,20,00,00,A8,AA,
4266291,00000362,false,Rx,0,8,02,02,00,00,00,00,00,00,
4271291,0000075A,false,Rx,0,8,03,F6,03,ED,65,63,3F,3F,
4276291,00000362,false,Rx,0,8,02,02,00,00,00,00,00,00,
4281291,00000563,false,Rx,0,8,AA,AA,AA,AA,A2,2A,00,00,
4286291,00000362,false,Rx,0,8,02,02,00,00,00,00,00,00,
4291291,000005A1,false,Rx,0,8,2A,A2,AA,2A,A2,8A,82,A2,
4296291,00000362,false,Rx,0,8,02,02,00,00,00,00,00,00,
4301291,000005A1,false,Rx,0,8,2A,A2,AA,2A,A2,8A,82,A2,
4306291,00000285,false,Rx,0,8,00,00,14,39,91,FE,0C,10,
4311291,000005A1,false,Rx,0,8,2A,A2,AA,2A,A2,8A,82,A2,
4316291,00000285,false,Rx,0,8,00,00,14,39,91,FE,0C,10,
4321291,000005A1,false,Rx,0,8,2A,A2,AA,2A,A2,8A,82,A2,
4326291,00000285,false,Rx,0,8,00,00,14,39,91,FE,0C,10,
4331291,000005A1,false,Rx,0,8,2A,A2,AA,2A,A2,8A,82,A2,
4336291,00000285,false,Rx,0,8,00,00,14,39,91,FE,0C,10,
4341291,000005A1,false,Rx,0,8,2A,A2,AA,2A,A2,8A,82,A2,
4346291,00000185,false,Rx,0,8,08,00,1D,00,00,00,00,00,
4351291,000005A1,false,Rx,0,8,2A,A2,AA,2A,A2,8A,82,A2,
4356291,00000566,false,Rx,0,8,22,8A,0A,A0,A8,A0,AA,8A,
4361291,000005A1,false,Rx,0,8,2A,A2,AA,2A,A2,8A,82,A2,
4366291,00000370,false,Rx,0,8,05,BE,00,00,00,00,00,00,
4371291,00000287,false,Rx,0,8,27,1E,27,27,27,10,03,00,
4376291,0000056A,false,Rx,0,8,22,8A,0A,A0,A8,A0,AA,8A,
4381291,00000287,false,Rx,0,8,27,1E,27,27,27,10,03,00,
4386291,00000566,false,Rx,0,8,22,8A,0A,A0,A8,A0,AA,8A,
4391291,00000287,false,Rx,0,8,27,1D,27,25,27,10,03,00,
4396291,00000669,false,Rx,0,8,01,37,30,32,00,00,00,00,
4401291,00000287,false,Rx,0,8,27,1C,27,24,27,10,03,00,
4406291,00000288,false,Rx,0,8,27,1C,58,01,0D,43,01,1C,
4411291,00000362,false,Rx,0,8,02,02,00,00,00,00,00,00,
4416291,00000564,false,Rx,0,8,22,8A,0A,AA,A8,A0,AA,8A,
4421291,00000362,false,Rx,0,8,02,02,00,00,00,00,00,00,
4426291,00000564,false,Rx,0,8,22,8A,0A,AA,A8,A0,AA,8A,
4431291,00000362,false,Rx,0,8,02,02,00,00,00,00,00,00,
4436291,00000564,false,Rx,0,8,22,8A,0A,AA,A8,A0,AA,8A,
4441291,00000285,false,Rx,0,8,00,00,14,39,91,FE,0C,10,
4446291,0000075A,false,Rx,0,8,03,ED,03,EA,64,64,3F,3F,
4451291,00000285,false,Rx,0,8,00,00,14,39,91,FE,0C,10,
4456291,00000564,false,Rx,0,8,22,8A,0A,AA,A8,A0,AA,8A,
4461291,00000285,false,Rx,0,8,00,00,14,39,91,FE,0C,10,
4466291,00000377,false,Rx,0,8,05,BE,00,D3,41,41,41,22,
4471291,00000285,false,Rx,0,8,00,00,14,39,91,FE,0C,10,
4476291,00000568,false,Rx,0,8,00,02,80,0A,00,00,A8,AA,
4481291,00000285,false,Rx,0,8,00,00,14,39,91,FE,0C,10,
4486291,00000377,false,Rx,0,8,05,BE,00,D3,41,41,41,22,
4491291,00000285,false,Rx,0,8,00,00,14,39,91,FE,0C,10,
4496291,00000665,false,Rx,0,8,02,00,00,00,00,00,00,00,
4501291,00000154,false,Rx,0,8,67,68,A0,69,0A,03,7A,B5,
4506291,00000287,false,Rx,0,8,27,1C,27,24,27,10,03,00,
4511291,00000362,false,Rx,0,8,02,02,00,00,00,00,00,00,
4516291,00000287,false,Rx,0,8,27,1D,27,26,27,10,03,00,
4521291,00000370,false,Rx,0,8,05,BE,00,00,00,00,00,00,
4526291,00000287,false,Rx,0,8,27,1E,27,28,27,10,03,00,
4531291,0000028B,false,Rx,0,8,27,10,4E,20,0D,42,01,14,
4536291,00000287,false,Rx,0,8,27,1F,27,29,27,10,03,00,
4541291,0000028B,false,Rx,0,8,27,10,4E,20,0D,42,01,14,
4546291,00000287,false,Rx,0,8,27,21,27,2C,27,10,03,00,
4551291,00000373,false,Rx,0,8,C1,C1,7D,49,0C,99,80,06,
4556291,00000287,false,Rx,0,8,27,21,27,2C,27,10,03,00,
4561291,00000733,false,Rx,0,8,42,00,42,00,0F,B0,A4,41,
4566291,00000374,false,Rx,0,8,B3,B9,5F,FE,4A,48,40,30,
4571291,00000288,false,Rx,0,8,27,22,58,39,0D,43,01,1C,
4576291,00000285,false,Rx,0,8,00,00,14,39,91,FE,0C,10,
4581291,00000288,false,Rx,0,8,27,1E,58,3F,0D,43,01,1C,
4586291,00000285,false,Rx,0,8,00,00,14,39,91,FE,0C,10,
4591291,000006FA,false,Rx,0,8,01,32,57,45,5A,30,30,31,
4596291,00000362,false,Rx,0,8,02,02,00,00,00,00,00,00,
4601291,0000075A,false,Rx,0,8,03,EE,03,EA,64,64,3F,3F,
4606291,00000362,false,Rx,0,8,02,02,00,00,00,00,00,00,
4611291,000006FA,false,Rx,0,8,02,31,32,32,00,00,00,00,
4616291,00000362,false,Rx,0,8,02,02,00,00,00,00,00,00,
4621291,0000075B,false,Rx,0,8,45,00,45,00,0F,B0,A4,40,
4626291,00000362,false,Rx,0,8,02,02,00,00,00,00,00,00,
4631291,00000569,false,Rx,0,8,AA,82,A2,02,00,00,00,00,
4636291,00000362,false,Rx,0,8,02,02,00,00,00,00,00,00,
4641291,00000287,false,Rx,0,8,27,22,27,2E,27,10,03,00,
4646291,00000286,false,Rx,0,8,00,00,00,3D,00,00,21,00,
4651291,00000287,false,Rx,0,8,27,22,27,2D,27,10,03,00,
4656291,00000370,false,Rx,0,8,05,BE,00,00,00,00,00,00,
4661291,00000287,false,Rx,0,8,27,21,27,2D,27,10,03,00,
4666291,00000424,false,Rx,0,8,04,93,04,1F,09,4C,00,00,
4671291,00000287,false,Rx,0,8,27,21,27,2C,27,10,03,00,
4676291,00000370,false,Rx,0,8,05,BE,00,00,00,00,00,00,
4681291,00000287,false,Rx,0,8,27,21,27,2C,27,10,03,00,
4686291,00000286,false,Rx,0,8,00,00,00,3D,00,00,21,00,
4691291,00000287,false,Rx,0,8,27,21,27,2D,27,10,03,00,
4696291,00000370,false,Rx,0,8,05,BE,00,00,00,00,00,00,
4701291,00000377,false,Rx,0,8,05,BE,00,CE,41,41,41,22,
4706291,00000289,false,Rx,0,8,27,26,55,AC,0D,43,11,1C,
4711291,00000285,false,Rx,0,8,00,00,14,39,91,FE,0C,10,
4716291,0000028B,false,Rx,0,8,27,10,4E,20,0D,42,01,14,
4721291,00000285,false,Rx,0,8,00,00,14,39,91,FE,0C,10,
4726291,0000056B,false,Rx,0,8,AA,02,00,00,80,AA,00,00,
4731291,00000285,false,Rx,0,8,00,00,14,39,91,FE,0C,10,
4736291,00000373,false,Rx,0,8,C1,C1,7D,23,0C,99,80,06,
4741291,00000285,false,Rx,0,8,00,00,14,39,91,FE,0C,10,
4746291,00000373,false,Rx,0,8,C1,C1,7D,11,0C,99,80,06,
4751291,00000285,false,Rx,0,8,00,00,14,39,91,FE,0C,10,
4756291,00000734,false,Rx,0,8,03,E8,03,E8,64,64,3C,3D,
4761291,00000285,false,Rx,0,8,00,00,14,39,91,FE,0C,10,
4766291,00000565,false,Rx,0,8,AA,02,00,A8,A0,AA,00,00,
4771291,00000362,false,Rx,0,8,02,02,00,00,00,00,00,00,
4776291,00000565,false,Rx,0,8,AA,02,00,A8,A0,AA,00,00,
4781291,00000362,false,Rx,0,8,02,02,00,00,00,00,00,00,
4786291,00000287,false,Rx,0,8,27,3B,27,58,27,10,03,00,
4791291,00000362,false,Rx,0,8,02,02,00,00,00,00,00,00,
4796291,0000075A,false,Rx,0,8,03,F6,03,EC,64,64,3E,3F,
4801291,00000424,false,Rx,0,8,04,93,04,1F,09,4C,00,00,
4806291,00000287,false,Rx,0,8,27,3C,27,59,27,10,03,00,
4811291,00000370,false,Rx,0,8,05,BE,00,00,00,00,00,00,
4816291,00000377,false,Rx,0,8,05,BE,00,CE,41,41,41,22,
4821291,00000362,false,Rx,0,8,02,02,00,00,00,00,00,00,
4826291,00000389,false,Rx,0,8,A1,00,00,40,40,40,00,00,
4831291,00000362,false,Rx,0,8,02,02,00,00,00,00,00,00,
4836291,00000377,false,Rx,0,8,05,BE,00,CE,41,41,41,22,
4841291,00000424,false,Rx,0,8,04,93,04,1F,09,4C,00,00,
4846291,00000389,false,Rx,0,8,A1,00,00,40,40,40,00,00,
4851291,00000362,false,Rx,0,8,02,02,00,00,00,00,00,00,
4856291,00000285,false,Rx,0,8,00,00,14,39,91,FE,0C,10,
4861291,00000362,false,Rx,0,8,02,02,00,00,00,00,00,00,
4866291,00000285,false,Rx,0,8,00,00,14,39,91,FE,0C,10,
4871291,00000362,false,Rx,0,8,02,02,00,00,00,00,00,00,
4876291,00000285,false,Rx,0,8,00,00,14,39,91,FE,0C,10,
4881291,00000289,false,Rx,0,8,27,48,55,D5,0D,43,11,1C,
4886291,00000285,false,Rx,0,8,00,00,14,39,91,FE,0C,10,
4891291,00000299,false,Rx,0,8,42,40,43,44,41,00,00,00,
4896291,00000285,false,Rx,0,8,00,00,14,39,91,FE,0C,10,
4901291,0000028B,false,Rx,0,8,27,10,4E,20,0D,42,01,14,
4906291,00000285,false,Rx,0,8,00,00,14,39,91,FE,0C,10,
4911291,00000732,false,Rx,0,8,03,F5,03,EC,65,63,40,40,
4916291,00000285,false,Rx,0,8,00,00,14,39,91,FE,0C,10,
4921291,00000287,false,Rx,0,8,27,2C,27,3F,27,10,03,00,
4926291,00000370,false,Rx,0,8,05,BE,00,00,00,00,00,00,
4931291,00000373,false,Rx,0,8,C1,C1,7C,27,0C,97,80,06,
4936291,00000424,false,Rx,0,8,04,93,04,1F,09,4C,00,00,
4941291,00000288,false,Rx,0,8,27,1F,58,BF,0D,43,01,1C,
4946291,00000370,false,Rx,0,8,05,BE,00,00,00,00,00,00,
4951291,00000734,false,Rx,0,8,03,E8,03,E8,64,64,3C,3D,
4956291,00000362,false,Rx,0,8,02,02,00,00,00,00,00,00,
4961291,00000288,false,Rx,0,8,26,FB,58,A9,0D,43,01,1C,
4966291,00000362,false,Rx,0,8,02,02,00,00,00,00,00,00,
4971291,0000075A,false,Rx,0,8,03,E4,03,EA,5D,64,3E,3F,
4976291,00000362,false,Rx,0,8,02,02,00,00,00,00,00,00,
4981291,00000288,false,Rx,0,8,26,C3,58,B5,0D,44,01,1C,
4986291,00000362,false,Rx,0,8,02,02,00,00,00,00,00,00,
4991291,00000285,false,Rx,0,8,00,00,14,39,91,FE,0C,10,
4996291,00000362,false,Rx,0,8,02,02,00,00,00,00,00,00,
5001291,0000038A,false,Rx,0,8,40,40,16,00,04,00,00,00,
5006291,00000362,false,Rx,0,8,02,02,00,00,00,00,00,00,
5011291,00000377,false,Rx,0,8,05,BE,00,CE,41,41,41,22,
5016291,00000362,false,Rx,0,8,02,02,00,00,00,00,00,00,
5021291,0000038A,false,Rx,0,8,40,40,16,00,04,00,00,00,
5026291,00000362,false,Rx,0,8,02,02,00,00,00,00,00,00,
5031291,00000377,false,Rx,0,8,05,BE,00,CE,41,41,41,22,
5036291,00000362,false,Rx,0,8,02,02,00,00,00,00,00,00,
5041291,0000038A,false,Rx,0,8,40,40,16,00,04,00,00,00,
5046291,00000362,false,Rx,0,8,02,02,00,00,00,00,00,00,
5051291,00000377,false,Rx,0,8,05,BE,00,CE,41,41,41,22,
5056291,00000388,false,Rx,0,8,01,00,00,00,00,00,00,02,
5061291,00000370,false,Rx,0,8,05,BE,00,00,00,00,00,00,
5066291,00000289,false,Rx,0,8,26,AF,55,D7,0D,44,11,1C,
5071291,00000424,false,Rx,0,8,04,93,04,1F,09,4C,00,00,
5076291,0000028B,false,Rx,0,8,27,10,4E,20,0D,43,01,14,
5081291,00000370,false,Rx,0,8,05,BE,00,00,00,00,00,00,
5086291,00000732,false,Rx,0,8,03,D5,03,EB,64,65,40,40,
5091291,00000377,false,Rx,0,8,05,BE,00,D3,41,41,41,22,
5096291,0000056F,false,Rx,0,8,2A,88,AA,2A,00,00,28,0A,
5101291,00000370,false,Rx,0,8,05,BE,00,00,00,00,00,00,
5106291,00000734,false,Rx,0,8,03,E8,03,E8,64,64,3C,3D,
5111291,00000424,false,Rx,0,8,04,93,04,1F,09,4C,00,00,
5116291,00000288,false,Rx,0,8,26,9A,58,B2,0D,45,01,1C,
5121291,00000370,false,Rx,0,8,05,BE,00,00,00,00,00,00,
5126291,00000288,false,Rx,0,8,26,97,58,AF,0D,45,01,1C,
5131291,00000377,false,Rx,0,8,05,BE,00,CE,41,41,41,22,
5136291,00000285,false,Rx,0,8,00,00,14,39,91,FE,0C,10,
5141291,00000362,false,Rx,0,8,02,02,00,00,00,00,00,00,
5146291,0000075A,false,Rx,0,8,03,CA,03,ED,64,64,3F,3F,
5151291,00000362,false,Rx,0,8,02,02,00,00,00,00,00,00,
5156291,0000056C,false,Rx,0,8,2A,88,02,20,00,00,A8,AA,
5161291,00000185,false,Rx,0,8,08,00,1D,00,00,00,00,00,
5166291,00000377,false,Rx,0,8,05,BE,00,CE,41,41,41,22,
5171291,00000362,false,Rx,0,8,02,02,00,00,00,00,00,00,
5176291,000005A1,false,Rx,0,8,2A,A2,AA,2A,A2,8A,82,A2,
5181291,00000185,false,Rx,0,8,08,00,1D,00,00,00,00,00,
5186291,000005A1,false,Rx,0,8,2A,A2,AA,2A,A2,8A,82,A2,
5191291,00000362,false,Rx,0,8,02,02,00,00,00,00,00,00,
5196291,00000370,false,Rx,0,8,05,BE,00,00,00,00,00,00,
5201291,00000287,false,Rx,0,8,26,9A,26,AB,27,10,03,00,
5206291,000005A1,false,Rx,0,8,2A,A2,AA,2A,A2,8A,82,A2,
5211291,00000287,false,Rx,0,8,26,9B,26,AB,27,10,03,00,
5216291,00000370,false,Rx,0,8,05,BE,00,00,00,00,00,00,
5221291,00000287,false,Rx,0,8,26,9B,26,AA,27,10,03,00,
5226291,000005A1,false,Rx,0,8,2A,A2,AA,2A,A2,8A,82,A2,
5231291,00000289,false,Rx,0,8,26,A5,55,BD,0D,45,11,1C,
5236291,00000370,false,Rx,0,8,05,BE,00,00,00,00,00,00,
5241291,00000566,false,Rx,0,8,22,8A,0A,A0,A8,A0,AA,8A,
5246291,000005A1,false,Rx,0,8,2A,A2,AA,2A,A2,8A,82,A2,
5251291,0000028B,false,Rx,0,8,27,10,4E,20,0D,44,01,14,
5256291,00000370,false,Rx,0,8,05,BE,00,00,00,00,00,00,
5261291,0000056A,false,Rx,0,8,22,8A,0A,A0,A8,A0,AA,8A,
5266291,000005A1,false,Rx,0,8,2A,A2,AA,2A,A2,8A,82,A2,
5271291,00000373,false,Rx,0,8,C3,C3,84,B6,0C,A6,80,06,
5276291,000005A1,false,Rx,0,8,2A,A2,AA,2A,A2,8A,82,A2,
5281291,00000732,false,Rx,0,8,03,D5,03,ED,64,64,40,40,
5286291,000006FA,false,Rx,0,8,00,4A,4D,46,58,44,47,47,
5291291,00000669,false,Rx,0,8,01,37,30,32,00,00,00,00,
5296291,000005A1,false,Rx,0,8,2A,A2,AA,2A,A2,8A,82,A2,
5301291,00000288,false,Rx,0,8,26,9D,58,84,0D,45,01,1C,
5306291,00000362,false,Rx,0,8,02,02,00,00,00,00,00,00,
5311291,00000564,false,Rx,0,8,22,8A,0A,AA,A8,A0,AA,8A,
5316291,00000362,false,Rx,0,8,02,02,00,00,00,00,00,00,
5321291,0000075A,false,Rx,0,8,03,C9,03,ED,64,64,3F,3F,
5326291,00000362,false,Rx,0,8,02,02,00,00,00,00,00,00,
5331291,00000370,false,Rx,0,8,05,BE,00,00,00,00,00,00,
5336291,00000287,false,Rx,0,8,26,9B,26,AA,27,10,03,00,
5341291,00000377,false,Rx,0,8,05,BE,00,CE,42,41,41,22,
5346291,00000287,false,Rx,0,8,26,9B,26,AA,27,10,03,00,
5351291,00000568,false,Rx,0,8,00,02,80,0A,00,00,A8,AA,
5356291,00000287,false,Rx,0,8,26,9B,26,AA,27,10,03,00,
5361291,00000377,false,Rx,0,8,05,BE,00,CE,42,41,41,22,
5366291,00000287,false,Rx,0,8,26,9B,26,AA,27,10,03,00,
5371291,00000370,false,Rx,0,8,05,BE,00,00,00,00,00,00,
5376291,00000154,false,Rx,0,8,67,68,A0,69,0A,03,7A,B5,
5381291,00000377,false,Rx,0,8,05,BE,00,D3,42,41,41,22,
5386291,00000287,false,Rx,0,8,26,9A,26,AB,27,10,03,00,
5391291,00000568,false,Rx,0,8,00,02,80,0A,00,00,A8,AA,
5396291,00000285,false,Rx,0,8,00,00,14,39,91,FE,0C,10,
5401291,00000377,false,Rx,0,8,05,BE,00,CE,42,41,41,22,
5406291,00000289,false,Rx,0,8,26,A4,55,A6,0D,45,11,1C,
5411291,00000370,false,Rx,0,8,05,BE,00,00,00,00,00,00,
5416291,00000732,false,Rx,0,8,03,D5,03,EB,64,65,40,40,
5421291,00000377,false,Rx,0,8,05,BE,00,D3,42,41,41,22,
5426291,0000028B,false,Rx,0,8,27,10,4E,20,0D,44,01,14,
5431291,00000663,false,Rx,0,8,02,00,00,00,00,00,00,00,
5436291,00000424,false,Rx,0,8,04,93,04,1F,09,4C,00,00,
5441291,00000374,false,Rx,0,8,B3,B9,61,FE,4A,48,40,30,
5446291,00000373,false,Rx,0,8,C3,C3,84,C0,0C,A7,80,06,
5451291,00000564,false,Rx,0,8,22,8A,0A,AA,A8,A0,AA,8A,
5456291,00000735,false,Rx,0,8,40,00,40,00,0F,B0,A4,3D,
5461291,00000374,false,Rx,0,8,B3,B9,61,FE,4A,48,40,30,
5466291,00000288,false,Rx,0,8,26,9F,58,53,0D,45,01,1C,
5471291,00000287,false,Rx,0,8,26,9B,26,AA,27,10,03,00,
5476291,00000735,false,Rx,0,8,40,00,40,00,0F,B0,A4,3D,
5481291,00000362,false,Rx,0,8,02,02,00,00,00,00,00,00,
5486291,00000288,false,Rx,0,8,26,9C,58,59,0D,45,01,1C,
5491291,00000362,false,Rx,0,8,02,02,00,00,00,00,00,00,
5496291,0000075B,false,Rx,0,8,45,00,45,00,0F,B0,A4,40,
5501291,00000362,false,Rx,0,8,02,02,00,00,00,00,00,00,
5506291,00000288,false,Rx,0,8,26,8F,58,51,0D,45,01,1C,
5511291,00000362,false,Rx,0,8,02,02,00,00,00,00,00,00,
5516291,00000377,false,Rx,0,8,05,BE,00,CE,42,41,41,22,
5521291,00000362,false,Rx,0,8,02,02,00,00,00,00,00,00,
5526291,00000664,false,Rx,0,8,02,83,06,32,F3,00,00,00,
5531291,00000362,false,Rx,0,8,02,02,00,00,00,00,00,00,
5536291,00000377,false,Rx,0,8,05,BE,00,CE,42,41,41,22,
5541291,00000285,false,Rx,0,8,00,00,14,39,91,FE,0C,10,
5546291,00000569,false,Rx,0,8,AA,82,A2,02,00,00,00,00,
5551291,00000285,false,Rx,0,8,00,00,14,39,91,FE,0C,10,
5556291,00000377,false,Rx,0,8,05,BE,00,D3,42,41,41,22,
5561291,00000285,false,Rx,0,8,00,00,14,39,91,FE,0C,10,
5566291,00000288,false,Rx,0,8,26,9A,58,3F,0D,45,01,1C,
5571291,00000424,false,Rx,0,8,04,93,04,1F,09,4C,00,00,
5576291,00000377,false,Rx,0,8,05,BE,00,CE,42,41,41,22,
5581291,00000289,false,Rx,0,8,26,AC,55,76,0D,45,11,1C,
5586291,00000569,false,Rx,0,8,AA,82,A2,02,00,00,00,00,
5591291,00000567,false,Rx,0,8,AA,02,00,A8,A0,AA,00,00,
5596291,00000377,false,Rx,0,8,05,BE,00,D3,42,41,41,22,
5601291,0000028B,false,Rx,0,8,27,10,4E,20,0D,44,01,14,
5606291,00000287,false,Rx,0,8,26,38,26,55,27,10,03,00,
5611291,00000732,false,Rx,0,8,03,C6,03,EF,65,65,40,40,
5616291,00000287,false,Rx,0,8,25,EB,26,14,27,10,03,00,
5621291,0000056B,false,Rx,0,8,AA,02,00,00,80,AA,00,00,
5626291,00000287,false,Rx,0,8,25,BF,25,F0,27,10,03,00,
5631291,0000056B,false,Rx,0,8,AA,02,00,00,80,AA,00,00,
5636291,00000287,false,Rx,0,8,25,9E,25,D7,27,10,03,00,
5641291,00000288,false,Rx,0,8,25,A0,58,10,0D,46,01,1C,
5646291,00000287,false,Rx,0,8,25,80,25,C1,27,10,03,00,
5651291,00000565,false,Rx,0,8,AA,02,00,A8,A0,AA,00,00,
5656291,00000287,false,Rx,0,8,25,75,25,BA,27,10,03,00,
5661291,00000565,false,Rx,0,8,AA,02,00,A8,A0,AA,00,00,
5666291,00000362,false,Rx,0,8,02,02,00,00,00,00,00,00,
5671291,0000075A,false,Rx,0,8,03,88,04,0A,63,63,3F,3F,
5676291,00000285,false,Rx,0,8,00,00,14,39,91,FE,0C,10,
5681291,00000565,false,Rx,0,8,AA,02,00,A8,A0,AA,00,00,
5686291,00000285,false,Rx,0,8,00,00,14,39,91,FE,0C,10,
5691291,0000075A,false,Rx,0,8,03,87,04,0C,63,62,3F,40,
5696291,00000285,false,Rx,0,8,00,00,14,39,91,FE,0C,10,
5701291,00000389,false,Rx,0,8,A3,00,00,40,40,40,00,00,
5706291,00000424,false,Rx,0,8,04,93,04,1F,09,4C,00,00,
5711291,00000377,false,Rx,0,8,05,BE,00,D8,42,41,41,22,
5716291,00000362,false,Rx,0,8,02,02,00,00,00,00,00,00,
5721291,00000389,false,Rx,0,8,A3,00,00,40,40,40,00,00,
5726291,00000362,false,Rx,0,8,02,02,00,00,00,00,00,00,
5731291,00000377,false,Rx,0,8,05,BE,00,D8,42,41,41,22,
5736291,00000362,false,Rx,0,8,02,02,00,00,00,00,00,00,
5741291,00000287,false,Rx,0,8,25,6C,25,B7,27,10,03,00,
5746291,00000424,false,Rx,0,8,04,93,04,1F,09,4C,00,00,
5751291,00000287,false,Rx,0,8,25,65,25,B2,27,10,03,00,
5756291,00000289,false,Rx,0,8,25,AB,55,07,0D,47,11,1C,
5761291,00000287,false,Rx,0,8,25,64,25,B1,27,10,03,00,
5766291,00000299,false,Rx,0,8,42,41,43,4C,41,00,00,00,
5771291,00000287,false,Rx,0,8,25,5C,25,AA,27,10,03,00,
5776291,0000028B,false,Rx,0,8,27,10,4E,20,0D,46,01,14,
5781291,00000287,false,Rx,0,8,25,49,25,9A,27,10,03,00,
5786291,00000732,false,Rx,0,8,03,A4,03,F6,64,65,40,41,
5791291,00000287,false,Rx,0,8,25,39,25,8E,27,10,03,00,
5796291,00000373,false,Rx,0,8,C6,C6,92,A8,0C,BF,80,06,
5801291,00000375,false,Rx,0,8,0F,0F,00,22,EA,00,00,00,
5806291,00000734,false,Rx,0,8,03,E8,03,E8,64,64,3C,3D,
5811291,00000285,false,Rx,0,8,00,00,14,39,91,FE,0C,10,
5816291,00000288,false,Rx,0,8,25,22,57,3A,0D,47,01,1C,
5821291,00000285,false,Rx,0,8,00,00,14,39,91,FE,0C,10,
5826291,00000298,false,Rx,0,8,45,41,41,52,40,00,00,40,
5831291,00000285,false,Rx,0,8,00,00,14,39,91,FE,0C,10,
5836291,00000288,false,Rx,0,8,25,23,57,1C,0D,48,01,1C,
5841291,00000362,false,Rx,0,8,02,02,00,00,00,00,00,00,
5846291,0000075A,false,Rx,0,8,03,78,04,17,64,64,40,40,
5851291,00000362,false,Rx,0,8,02,02,00,00,00,00,00,00,
5856291,00000288,false,Rx,0,8,25,2B,57,00,0D,48,01,1C,
5861291,00000362,false,Rx,0,8,02,02,00,00,00,00,00,00,
5866291,00000377,false,Rx,0,8,05,BE,00,D8,42,41,41,22,
5871291,00000362,false,Rx,0,8,02,02,00,00,00,00,00,00,
5876291,00000287,false,Rx,0,8,25,26,25,83,27,10,03,00,
5881291,00000362,false,Rx,0,8,02,02,00,00,00,00,00,00,
5886291,00000287,false,Rx,0,8,25,29,25,86,27,10,03,00,
5891291,00000370,false,Rx,0,8,05,BE,00,00,00,00,00,00,
5896291,00000287,false,Rx,0,8,25,24,25,80,27,10,03,00,
5901291,00000362,false,Rx,0,8,02,02,00,00,00,00,00,00,
5906291,00000377,false,Rx,0,8,05,BE,00,DD,42,41,41,22,
5911291,00000370,false,Rx,0,8,05,BE,00,00,00,00,00,00,
5916291,0000038A,false,Rx,0,8,41,40,16,00,04,00,00,00,
5921291,00000362,false,Rx,0,8,02,02,00,00,00,00,00,00,
5926291,00000377,false,Rx,0,8,05,BE,00,D8,42,41,41,22,
5931291,00000289,false,Rx,0,8,25,76,54,45,0D,47,11,1C,
5936291,00000185,false,Rx,0,8,08,00,1D,00,00,00,00,00,
5941291,0000056D,false,Rx,0,8,2A,00,00,20,00,00,A8,AA,
5946291,00000285,false,Rx,0,8,00,00,14,39,91,FE,0C,10,
5951291,0000028B,false,Rx,0,8,27,10,4E,20,0D,46,01,14,
5956291,00000285,false,Rx,0,8,00,00,14,39,91,FE,0C,10,
5961291,00000373,false,Rx,0,8,C6,C6,91,A7,0C,C0,80,06,
5966291,00000285,false,Rx,0,8,00,00,14,39,91,FE,0C,10,
5971291,00000373,false,Rx,0,8,C6,C6,91,78,0C,BF,80,06,
5976291,00000185,false,Rx,0,8,08,00,1D,00,00,00,00,00,
5981291,00000734,false,Rx,0,8,03,E8,03,E8,64,64,3C,3D,
5986291,00000285,false,Rx,0,8,00,00,14,39,91,FE,0C,10,
5991291,00000288,false,Rx,0,8,25,29,56,39,0D,47,01,1C,
5996291,00000285,false,Rx,0,8,00,00,14,39,91,FE,0C,10,
6001291,0000056C,false,Rx,0,8,2A,88,02,20,00,00,A8,AA,
6006291,00000285,false,Rx,0,8,00,00,14,39,91,FE,0C,10,
6011291,00000287,false,Rx,0,8,25,2B,25,86,27,10,03,00,
6016291,00000362,false,Rx,0,8,02,02,00,00,00,00,00,00,
6021291,0000075A,false,Rx,0,8,03,78,04,14,65,66,41,42,
6026291,00000362,false,Rx,0,8,02,02,00,00,00,00,00,00,
6031291,00000287,false,Rx,0,8,25,2B,25,85,27,10,03,00,
6036291,00000362,false,Rx,0,8,02,02,00,00,00,00,00,00,
6041291,0000075A,false,Rx,0,8,03,7C,04,17,62,63,41,42,
6046291,00000362,false,Rx,0,8,02,02,00,00,00,00,00,00,
6051291,000005A1,false,Rx,0,8,2A,A2,AA,2A,A2,8A,82,A2,
6056291,00000362,false,Rx,0,8,02,02,00,00,00,00,00,00,
6061291,000005A1,false,Rx,0,8,2A,A2,AA,2A,A2,8A,82,A2,
6066291,00000362,false,Rx,0,8,02,02,00,00,00,00,00,00,
6071291,00000424,false,Rx,0,8,04,93,04,1F,09,4C,00,00,
6076291,00000362,false,Rx,0,8,02,02,00,00,00,00,00,00,
6081291,00000285,false,Rx,0,8,00,00,14,39,91,FE,0C,10,
6086291,00000362,false,Rx,0,8,02,02,00,00,00,00,00,00,
6091291,00000285,false,Rx,0,8,00,00,14,39,91,FE,0C,10,
6096291,00000362,false,Rx,0,8,02,02,00,00,00,00,00,00,
6101291,00000285,false,Rx,0,8,00,00,14,39,91,FE,0C,10,
6106291,00000289,false,Rx,0,8,25,85,53,93,0D,47,11,1C,
6111291,00000285,false,Rx,0,8,00,00,14,39,91,FE,0C,10,
6116291,00000566,false,Rx,0,8,22,8A,0A,A0,A8,A0,AA,8A,
6121291,00000285,false,Rx,0,8,00,00,14,39,91,FE,0C,10,
6126291,0000056A,false,Rx,0,8,22,8A,0A,A0,A8,A0,AA,8A,
6131291,00000285,false,Rx,0,8,00,00,14,39,91,FE,0C,10,
6136291,00000373,false,Rx,0,8,C6,C5,8F,19,0C,BD,80,06,
6141291,00000285,false,Rx,0,8,00,00,14,39,91,FE,0C,10,
6146291,00000373,false,Rx,0,8,C6,C5,8E,DF,0C,BD,80,06,
6151291,00000285,false,Rx,0,8,00,00,14,39,91,FE,0C,10,
6156291,00000287,false,Rx,0,8,25,25,25,80,27,10,03,00,
6161291,00000370,false,Rx,0,8,05,BE,00,00,00,00,00,00,
6166291,00000288,false,Rx,0,8,25,29,55,3E,0D,47,01,1C,
6171291,00000285,false,Rx,0,8,00,00,14,39,91,FE,0C,10,
6176291,00000734,false,Rx,0,8,03,E8,03,E8,64,64,3C,3D,
6181291,00000370,false,Rx,0,8,05,BE,00,00,00,00,00,00,
6186291,00000564,false,Rx,0,8,22,8A,0A,AA,A8,A0,AA,8A,
6191291,000005A1,false,Rx,0,8,2A,A2,AA,2A,A2,8A,82,A2,
6196291,0000075A,false,Rx,0,8,03,78,04,17,64,63,42,43,
6201291,00000362,false,Rx,0,8,02,02,00,00,00,00,00,00,
6206291,00000424,false,Rx,0,8,04,93,04,1F,09,4C,00,00,
6211291,00000362,false,Rx,0,8,02,02,00,00,00,00,00,00,
6216291,00000285,false,Rx,0,8,00,00,14,39,91,FE,0C,10,
6221291,00000362,false,Rx,0,8,02,02,00,00,00,00,00,00,
6226291,00000568,false,Rx,0,8,00,02,80,0A,00,00,A8,AA,
6231291,00000362,false,Rx,0,8,02,02,00,00,00,00,00,00,
6236291,00000377,false,Rx,0,8,05,BE,00,D8,42,41,41,22,
6241291,00000362,false,Rx,0,8,02,02,00,00,00,00,00,00,
6246291,00000285,false,Rx,0,8,00,00,14,39,91,FE,0C,10,
6251291,00000154,false,Rx,0,8,69,68,A0,69,0B,03,7A,B5,
6256291,00000377,false,Rx,0,8,05,BE,00,DD,42,41,41,22,
6261291,00000362,false,Rx,0,8,02,02,00,00,00,00,00,00,
6266291,00000568,false,Rx,0,8,00,02,80,0A,00,00,A8,AA,
6271291,00000154,false,Rx,0,8,67,68,A0,69,0A,03,7A,B5,
6276291,00000377,false,Rx,0,8,05,BE,00,D8,42,41,41,22,
6281291,00000289,false,Rx,0,8,25,70,52,DB,0D,47,11,1C,
6286291,00000285,false,Rx,0,8,00,00,14,39,91,FE,0C,10,
6291291,00000287,false,Rx,0,8,25,11,25,74,27,10,03,00,
6296291,00000370,false,Rx,0,8,05,BE,00,00,00,00,00,00,
6301291,0000028B,false,Rx,0,8,27,10,4E,20,0D,46,01,14,
6306291,00000568,false,Rx,0,8,00,02,80,0A,00,00,A8,AA,
6311291,00000733,false,Rx,0,8,42,00,42,00,0F,B0,A4,43,
6316291,00000374,false,Rx,0,8,B3,B9,61,FE,4A,48,40,30,
6321291,00000373,false,Rx,0,8,C6,C5,8C,FD,0C,BB,80,06,
6326291,00000663,false,Rx,0,8,02,00,00,00,00,00,00,00,
6331291,00000735,false,Rx,0,8,40,00,40,00,0F,B0,A4,3D,
6336291,00000374,false,Rx,0,8,B3,B9,61,FE,4A,48,40,30,
6341291,00000288,false,Rx,0,8,25,10,54,41,0D,47,01,1C,
6346291,00000568,false,Rx,0,8,00,02,80,0A,00,00,A8,AA,
6351291,0000075A,false,Rx,0,8,03,74,04,18,64,63,42,43,
6356291,00000374,false,Rx,0,8,B3,B9,61,FE,4A,48,40,30,
6361291,00000285,false,Rx,0,8,00,00,14,39,91,FE,0C,10,
6366291,00000285,false,Rx,0,8,00,00,14,39,91,FE,0C,10,
6371291,0000075B,false,Rx,0,8,45,00,46,00,0F,B0,A4,44,
6376291,00000362,false,Rx,0,8,02,02,00,00,00,00,00,00,
6381291,00000285,false,Rx,0,8,00,00,14,39,91,FE,0C,10,
6386291,00000362,false,Rx,0,8,02,02,00,00,00,00,00,00,
6391291,0000075B,false,Rx,0,8,45,00,46,00,0F,B0,A4,44,
6396291,00000362,false,Rx,0,8,02,02,00,00,00,00,00,00,
6401291,00000285,false,Rx,0,8,00,00,14,39,91,FE,0C,10,
6406291,00000362,false,Rx,0,8,02,02,00,00,00,00,00,00,
6411291,00000377,false,Rx,0,8,05,BE,00,D8,42,41,41,22,
6416291,00000362,false,Rx,0,8,02,02,00,00,00,00,00,00,
6421291,00000664,false,Rx,0,8,02,83,06,32,F3,00,00,00,
6426291,00000287,false,Rx,0,8,25,15,25,7B,27,10,03,00,
6431291,00000370,false,Rx,0,8,05,BE,00,00,00,00,00,00,
6436291,00000287,false,Rx,0,8,25,17,25,7E,27,10,03,00,
6441291,00000288,false,Rx,0,8,25,1C,53,B2,0D,47,01,1C,
6446291,00000287,false,Rx,0,8,25,18,25,80,27,10,03,00,
6451291,00000370,false,Rx,0,8,05,BE,00,00,00,00,00,00,
6456291,00000289,false,Rx,0,8,25,7F,52,18,0D,46,11,1C,
6461291,00000569,false,Rx,0,8,AA,82,A2,02,00,00,00,00,
6466291,0000028B,false,Rx,0,8,27,10,4E,20,0D,45,01,14,
6471291,00000370,false,Rx,0,8,05,BE,00,00,00,00,00,00,
6476291,0000056B,false,Rx,0,8,AA,02,00,00,80,AA,00,00,
6481291,00000288,false,Rx,0,8,25,21,53,60,0D,47,01,1C,
6486291,00000373,false,Rx,0,8,C5,C5,8A,1F,0C,B7,80,06,
6491291,00000371,false,Rx,0,8,30,00,00,00,00,00,00,00,
6496291,00000285,false,Rx,0,8,00,00,14,39,91,FE,0C,10,
6501291,00000569,false,Rx,0,8,AA,82,A2,02,00,00,00,00,
6506291,00000734,false,Rx,0,8,03,E8,03,E8,64,64,3C,3D,
6511291,00000371,false,Rx,0,8,30,00,00,00,00,00,00,00,
6516291,00000288,false,Rx,0,8,25,24,53,37,0D,46,01,1C,
6521291,00000664,false,Rx,0,8,02,83,06,32,F3,00,00,00,
6526291,00000565,false,Rx,0,8,AA,02,00,A8,A0,AA,00,00,
6531291,00000371,false,Rx,0,8,30,00,00,00,00,00,00,00,
6536291,00000565,false,Rx,0,8,AA,02,00,A8,A0,AA,00,00,
6541291,00000569,false,Rx,0,8,AA,82,A2,02,00,00,00,00,
6546291,0000075A,false,Rx,0,8,03,7C,04,14,64,64,43,44,
6551291,00000362,false,Rx,0,8,02,02,00,00,00,00,00,00,
6556291,00000565,false,Rx,0,8,AA,02,00,A8,A0,AA,00,00,
6561291,00000287,false,Rx,0,8,25,37,25,94,27,10,03,00,
6566291,00000370,false,Rx,0,8,05,BE,00,00,00,00,00,00,
6571291,00000287,false,Rx,0,8,25,3B,25,95,27,10,03,00,
6576291,00000389,false,Rx,0,8,A3,00,00,40,40,40,00,00,
6581291,00000287,false,Rx,0,8,25,3D,25,97,27,10,03,00,
6586291,00000377,false,Rx,0,8,05,BE,00,D8,42,41,41,22,
6591291,00000287,false,Rx,0,8,25,40,25,99,27,10,03,00,
6596291,00000389,false,Rx,0,8,A3,00,00,40,40,40,00,00,
6601291,00000287,false,Rx,0,8,25,43,25,9A,27,10,03,00,
6606291,00000377,false,Rx,0,8,05,BE,00,D8,42,41,41,22,
6611291,00000424,false,Rx,0,8,04,93,04,1F,09,4C,00,00,
6616291,00000389,false,Rx,0,8,A2,00,00,40,40,40,00,00,
6621291,00000289,false,Rx,0,8,25,A1,51,44,0D,46,11,1C,
6626291,00000377,false,Rx,0,8,05,BE,00,D8,42,41,41,22,
6631291,00000285,false,Rx,0,8,00,00,14,39,91,FE,0C,10,
6636291,00000389,false,Rx,0,8,A2,00,00,40,40,40,00,00,
6641291,0000028B,false,Rx,0,8,27,10,4E,20,0D,45,01,14,
6646291,00000377,false,Rx,0,8,05,BE,00,DD,42,41,41,22,
6651291,0000028B,false,Rx,0,8,27,10,4E,20,0D,45,01,14,
6656291,00000375,false,Rx,0,8,0F,0F,00,22,F7,00,00,00,
6661291,0000029B,false,Rx,0,8,40,3D,41,3D,40,21,1B,40,
6666291,00000377,false,Rx,0,8,05,BE,00,D8,42,41,41,22,
6671291,00000373,false,Rx,0,8,C5,C4,85,E6,0C,B1,80,06,
6676291,000006FA,false,Rx,0,8,01,32,57,45,5A,30,30,31,
6681291,00000288,false,Rx,0,8,25,6A,52,0D,0D,46,01,1C,
6686291,00000377,false,Rx,0,8,05,BE,00,D8,42,41,41,22,
6691291,00000286,false,Rx,0,8,00,00,00,3D,00,00,21,00,
6696291,00000287,false,Rx,0,8,25,79,25,C6,27,10,03,00,
6701291,00000298,false,Rx,0,8,46,44,41,51,40,00,00,40,
6706291,00000424,false,Rx,0,8,04,93,04,1F,09,4C,00,00,
6711291,00000286,false,Rx,0,8,00,00,00,3D,00,00,21,00,
6716291,00000287,false,Rx,0,8,25,85,25,CE,27,10,03,00,
6721291,0000075A,false,Rx,0,8,03,8D,04,09,64,64,43,44,
6726291,00000362,false,Rx,0,8,02,02,00,00,00,00,00,00,
6731291,00000288,false,Rx,0,8,25,88,51,BF,0D,46,01,1C,
6736291,00000362,false,Rx,0,8,02,02,00,00,00,00,00,00,
6741291,0000075A,false,Rx,0,8,03,8F,04,08,64,64,43,44,
6746291,00000362,false,Rx,0,8,02,02,00,00,00,00,00,00,
6751291,0000038A,false,Rx,0,8,41,40,16,00,04,00,00,00,
6756291,00000362,false,Rx,0,8,02,02,00,00,00,00,00,00,
6761291,00000377,false,Rx,0,8,05,BE,00,D8,42,41,41,22,
6766291,00000285,false,Rx,0,8,00,00,14,39,91,FE,0C,10,
6771291,0000038A,false,Rx,0,8,41,40,16,00,04,00,00,00,
6776291,00000285,false,Rx,0,8,00,00,14,39,91,FE,0C,10,
6781291,00000377,false,Rx,0,8,05,BE,00,D3,42,41,41,22,
6786291,00000285,false,Rx,0,8,00,00,14,39,91,FE,0C,10,
6791291,0000038A,false,Rx,0,8,41,40,16,00,04,00,00,00,
6796291,00000285,false,Rx,0,8,00,00,14,39,91,FE,0C,10,
6801291,00000377,false,Rx,0,8,05,BE,00,D3,42,41,41,22,
6806291,00000289,false,Rx,0,8,25,EC,50,74,0D,45,11,1C,
6811291,0000038A,false,Rx,0,8,41,40,16,00,04,00,00,00,
6816291,0000028B,false,Rx,0,8,27,10,4E,20,0D,44,01,14,
6821291,00000377,false,Rx,0,8,05,BE,00,D8,42,41,41,22,
6826291,0000028B,false,Rx,0,8,27,10,4E,20,0D,44,01,14,
6831291,00000287,false,Rx,0,8,25,BD,25,FC,27,10,03,00,
6836291,00000732,false,Rx,0,8,03,B3,03,F2,64,64,43,44,
6841291,00000287,false,Rx,0,8,25,C1,25,FF,27,10,03,00,
6846291,0000056F,false,Rx,0,8,2A,88,AA,2A,00,00,28,0A,
6851291,00000287,false,Rx,0,8,25,C6,26,03,27,10,03,00,
6856291,00000732,false,Rx,0,8,03,B5,03,F4,64,62,43,44,
6861291,00000287,false,Rx,0,8,25,D0,26,0A,27,10,03,00,
6866291,00000288,false,Rx,0,8,25,D1,51,09,0D,45,01,1C,
6871291,00000287,false,Rx,0,8,25,DC,26,13,27,10,03,00,
6876291,0000056C,false,Rx,0,8,2A,88,02,20,00,00,A8,AA,
6881291,00000424,false,Rx,0,8,04,93,04,1F,09,4C,00,00,
6886291,00000666,false,Rx,0,8,02,B6,61,EA,8C,00,00,00,
6891291,00000287,false,Rx,0,8,26,81,26,99,27,10,03,00,
6896291,0000075A,false,Rx,0,8,03,BA,03,F3,63,65,43,44,
6901291,00000285,false,Rx,0,8,00,00,14,39,91,FE,0C,10,
6906291,0000056C,false,Rx,0,8,2A,88,02,20,00,00,A8,AA,
6911291,00000285,false,Rx,0,8,00,00,14,39,91,FE,0C,10,
6916291,0000075A,false,Rx,0,8,03,E5,03,E9,67,64,43,44,
6921291,00000362,false,Rx,0,8,02,02,00,00,00,00,00,00,
6926291,000005A1,false,Rx,0,8,2A,A2,AA,2A,A2,8A,82,A2,
6931291,00000362,false,Rx,0,8,02,02,00,00,00,00,00,00,
6936291,00000377,false,Rx,0,8,05,BE,00,C9,42,41,41,22,
6941291,00000362,false,Rx,0,8,02,02,00,00,00,00,00,00,
6946291,00000563,false,Rx,0,8,AA,AA,AA,AA,A2,2A,00,00,
6951291,00000362,false,Rx,0,8,02,02,00,00,00,00,00,00,
6956291,00000377,false,Rx,0,8,05,BE,00,CE,42,41,41,22,
6961291,00000362,false,Rx,0,8,02,02,00,00,00,00,00,00,
6966291,00000287,false,Rx,0,8,27,10,27,10,27,10,03,00,
6971291,00000370,false,Rx,0,8,05,BE,00,00,00,00,00,00,
6976291,00000287,false,Rx,0,8,27,10,27,10,27,10,03,00,
6981291,00000566,false,Rx,0,8,22,8A,0A,A0,A8,A0,AA,8A,
6986291,00000287,false,Rx,0,8,27,11,27,11,27,10,03,00,
6991291,00000566,false,Rx,0,8,22,8A,0A,A0,A8,A0,AA,8A,
6996291,00000287,false,Rx,0,8,27,1C,27,1F,27,10,03,00,
7001291,0000028B,false,Rx,0,8,27,10,4E,20,0D,43,01,14,
7006291,00000287,false,Rx,0,8,27,31,27,3A,27,10,03,00,
7011291,0000056A,false,Rx,0,8,22,8A,0A,A0,A8,A0,AA,8A,
7016291,00000287,false,Rx,0,8,27,45,27,68,27,10,03,00,
7021291,00000373,false,Rx,0,8,C3,C2,7D,E7,0C,A5,80,06,
7026291,00000287,false,Rx,0,8,27,5E,27,93,27,10,03,00,
7031291,00000734,false,Rx,0,8,03,E8,03,E8,64,64,3C,3D,
7036291,00000285,false,Rx,0,8,00,00,14,39,91,FE,0C,10,
7041291,00000564,false,Rx,0,8,22,8A,0A,AA,A8,A0,AA,8A,
7046291,00000285,false,Rx,0,8,00,00,14,39,91,FE,0C,10,
7051291,00000564,false,Rx,0,8,22,8A,0A,AA,A8,A0,AA,8A,
7056291,00000285,false,Rx,0,8,00,00,14,39,91,FE,0C,10,
7061291,00000564,false,Rx,0,8,22,8A,0A,AA,A8,A0,AA,8A,
7066291,00000285,false,Rx,0,8,00,00,14,39,91,FE,0C,10,
7071291,0000075A,false,Rx,0,8,04,26,03,F8,63,64,42,43,
7076291,00000362,false,Rx,0,8,02,02,00,00,00,00,00,00,
7081291,00000665,false,Rx,0,8,01,32,30,32,00,00,00,00,
7086291,00000362,false,Rx,0,8,02,02,00,00,00,00,00,00,
7091291,0000075A,false,Rx,0,8,04,2F,03,FC,64,65,42,43,
7096291,00000362,false,Rx,0,8,02,02,00,00,00,00,00,00,
7101291,00000568,false,Rx,0,8,00,02,80,0A,00,00,A8,AA,
7106291,00000370,false,Rx,0,8,05,BE,00,00,00,00,00,00,
7111291,00000377,false,Rx,0,8,05,BE,00,C9,42,41,41,22,
7116291,00000362,false,Rx,0,8,02,02,00,00,00,00,00,00,
7121291,00000663,false,Rx,0,8,01,33,30,30,00,00,00,00,
7126291,00000154,false,Rx,0,8,63,68,A0,69,0A,03,7A,B6,
7131291,00000377,false,Rx,0,8,05,BE,00,CE,42,41,41,22,
7136291,00000362,false,Rx,0,8,02,02,00,00,00,00,00,00,
7141291,00000568,false,Rx,0,8,00,02,80,0A,00,00,A8,AA,
7146291,00000154,false,Rx,0,8,66,68,A0,69,0A,03,7A,B6,
7151291,00000377,false,Rx,0,8,05,BE,00,C9,42,41,41,22,
7156291,00000289,false,Rx,0,8,29,5C,50,9A,0D,43,11,1C,
7161291,00000287,false,Rx,0,8,28,76,29,66,27,10,03,00,
7166291,00000732,false,Rx,0,8,04,4C,04,0F,64,64,42,43,
7171291,00000285,false,Rx,0,8,00,00,14,39,91,FE,0C,10,
7176291,0000028B,false,Rx,0,8,27,10,4E,20,0D,42,01,14,
7181291,00000285,false,Rx,0,8,00,00,14,39,91,FE,0C,10,
7186291,00000371,false,Rx,0,8,30,00,00,00,00,00,00,00,
7191291,00000374,false,Rx,0,8,B3,B9,61,FE,4A,48,40,30,
7196291,00000373,false,Rx,0,8,C0,C0,73,1F,0C,92,80,06,
7201291,00000285,false,Rx,0,8,00,00,14,39,91,FE,0C,10,
7206291,00000734,false,Rx,0,8,03,E8,03,E8,64,64,3C,3D,
7211291,00000374,false,Rx,0,8,B3,B9,61,FE,4A,48,40,30,
7216291,00000288,false,Rx,0,8,28,75,51,E0,0D,43,01,1C,
7221291,00000285,false,Rx,0,8,00,00,14,39,91,FE,0C,10,
7226291,0000075A,false,Rx,0,8,04,41,04,08,63,65,41,43,
7231291,00000374,false,Rx,0,8,B3,B9,61,FE,4A,48,40,30,
7236291,00000288,false,Rx,0,8,28,89,51,FB,0D,42,01,1C,
7241291,00000370,false,Rx,0,8,05,BE,00,00,00,00,00,00,
7246291,0000075B,false,Rx,0,8,46,00,46,00,0F,B0,A4,43,
7251291,00000362,false,Rx,0,8,02,02,00,00,00,00,00,00,
7256291,00000287,false,Rx,0,8,28,9E,29,AA,27,10,03,00,
7261291,00000362,false,Rx,0,8,02,02,00,00,00,00,00,00,
7266291,0000075B,false,Rx,0,8,46,00,46,00,0F,B0,A4,43,
7271291,00000362,false,Rx,0,8,02,02,00,00,00,00,00,00,
7276291,00000287,false,Rx,0,8,28,A8,29,BA,27,10,03,00,
7281291,00000362,false,Rx,0,8,02,02,00,00,00,00,00,00,
7286291,00000377,false,Rx,0,8,05,BE,00,CE,42,41,41,22,
7291291,00000362,false,Rx,0,8,02,02,00,00,00,00,00,00,
7296291,00000569,false,Rx,0,8,AA,82,A2,02,00,00,00,00,
7301291,00000362,false,Rx,0,8,02,02,00,00,00,00,00,00,
7306291,00000377,false,Rx,0,8,05,BE,00,CE,42,41,41,22,
7311291,00000362,false,Rx,0,8,02,02,00,00,00,00,00,00,
7316291,00000285,false,Rx,0,8,00,00,14,39,91,FE,0C,10,
7321291,00000362,false,Rx,0,8,02,02,00,00,00,00,00,00,
7326291,00000285,false,Rx,0,8,00,00,14,39,91,FE,0C,10,
7331291,00000289,false,Rx,0,8,29,BB,51,6E,0D,41,11,1C,
7336291,00000285,false,Rx,0,8,00,00,14,39,91,FE,0C,10,
7341291,00000732,false,Rx,0,8,04,59,04,17,64,64,42,43,
7346291,00000285,false,Rx,0,8,00,00,14,39,91,FE,0C,10,
7351291,000006FA,false,Rx,0,8,02,31,32,32,00,00,00,00,
7356291,00000285,false,Rx,0,8,00,00,14,39,91,FE,0C,10,
7361291,00000373,false,Rx,0,8,BF,BF,6D,FA,0C,87,80,06,
7366291,00000285,false,Rx,0,8,00,00,14,39,91,FE,0C,10,
7371291,0000056B,false,Rx,0,8,AA,02,00,00,80,AA,00,00,
7376291,00000285,false,Rx,0,8,00,00,14,39,91,FE,0C,10,
7381291,00000287,false,Rx,0,8,28,9C,29,A5,27,10,03,00,
7386291,00000286,false,Rx,0,8,00,00,00,3D,00,00,21,00,
7391291,00000288,false,Rx,0,8,28,9B,53,0A,0D,41,01,1C,
7396291,00000370,false,Rx,0,8,05,BE,00,00,00,00,00,00,
7401291,00000288,false,Rx,0,8,28,98,53,17,0D,41,01,1C,
7406291,00000286,false,Rx,0,8,00,00,00,3D,00,00,21,00,
7411291,00000565,false,Rx,0,8,AA,02,00,A8,A0,AA,00,00,
7416291,00000370,false,Rx,0,8,05,BE,00,00,00,00,00,00,
7421291,0000075A,false,Rx,0,8,04,45,04,0A,64,65,42,43,
7426291,00000286,false,Rx,0,8,00,00,00,3D,00,00,21,00,
7431291,00000565,false,Rx,0,8,AA,02,00,A8,A0,AA,00,00,
7436291,00000362,false,Rx,0,8,02,02,00,00,00,00,00,00,
7441291,0000075A,false,Rx,0,8,04,45,04,0B,64,64,42,43,
7446291,00000362,false,Rx,0,8,02,02,00,00,00,00,00,00,
7451291,00000285,false,Rx,0,8,00,00,14,39,91,FE,0C,10,
7456291,00000362,false,Rx,0,8,02,02,00,00,00,00,00,00,
7461291,00000377,false,Rx,0,8,05,BE,00,C9,42,41,41,22,
7466291,00000362,false,Rx,0,8,02,02,00,00,00,00,00,00,
7471291,00000389,false,Rx,0,8,A0,00,00,40,40,40,00,00,
7476291,00000362,false,Rx,0,8,02,02,00,00,00,00,00,00,
7481291,00000377,false,Rx,0,8,05,BE,00,C9,42,41,41,22,
7486291,00000362,false,Rx,0,8,02,02,00,00,00,00,00,00,
7491291,00000389,false,Rx,0,8,A0,00,00,40,40,40,00,00,
7496291,00000362,false,Rx,0,8,02,02,00,00,00,00,00,00,
7501291,00000377,false,Rx,0,8,05,BE,00,C9,42,41,41,22,
7506291,00000289,false,Rx,0,8,29,64,52,55,0D,41,11,1C,
7511291,00000389,false,Rx,0,8,A0,00,00,40,40,40,00,00,
7516291,00000287,false,Rx,0,8,28,6C,29,56,27,10,03,00,
7521291,00000377,false,Rx,0,8,05,BC,00,C9,42,41,41,22,
7526291,0000028B,false,Rx,0,8,27,10,4E,20,0D,40,01,14,
7531291,00000370,false,Rx,0,8,05,BE,00,00,00,00,00,00,
7536291,00000732,false,Rx,0,8,04,48,04,0C,65,65,44,44,
7541291,00000377,false,Rx,0,8,05,BE,00,C9,42,41,41,22,
7546291,00000185,false,Rx,0,8,08,00,1D,00,00,00,00,00,
7551291,00000375,false,Rx,0,8,0F,0F,00,22,F0,00,00,00,
7556291,00000734,false,Rx,0,8,03,E8,03,E8,64,64,3C,3D,
7561291,00000377,false,Rx,0,8,05,BE,00,C9,42,41,41,22,
7566291,00000288,false,Rx,0,8,28,56,54,40,0D,41,01,1C,
7571291,00000375,false,Rx,0,8,0F,0F,00,22,F0,00,00,00,
7576291,00000298,false,Rx,0,8,46,44,41,4D,40,00,00,41,
7581291,00000377,false,Rx,0,8,05,BE,00,C9,42,41,41,22,
7586291,00000285,false,Rx,0,8,00,00,14,39,91,FE,0C,10,
7591291,00000375,false,Rx,0,8,0F,0F,00,22,EF,00,00,00,
7596291,0000075A,false,Rx,0,8,04,38,04,02,64,64,42,43,
7601291,00000377,false,Rx,0,8,05,BE,00,C9,42,41,41,22,
7606291,00000285,false,Rx,0,8,00,00,14,39,91,FE,0C,10,
7611291,00000362,false,Rx,0,8,02,02,00,00,00,00,00,00,
7616291,0000075A,false,Rx,0,8,04,38,04,01,63,65,42,43,
7621291,00000362,false,Rx,0,8,02,02,00,00,00,00,00,00,
7626291,00000285,false,Rx,0,8,00,00,14,39,91,FE,0C,10,
7631291,00000362,false,Rx,0,8,02,02,00,00,00,00,00,00,
7636291,00000377,false,Rx,0,8,05,BE,00,C9,42,41,41,22,
7641291,00000362,false,Rx,0,8,02,02,00,00,00,00,00,00,
7646291,0000038A,false,Rx,0,8,41,40,15,00,04,00,00,00,
7651291,00000287,false,Rx,0,8,28,36,28,FC,27,10,03,00,
7656291,00000377,false,Rx,0,8,05,BE,00,C9,42,41,41,22,
7661291,00000287,false,Rx,0,8,28,2E,28,ED,27,10,03,00,
7666291,00000370,false,Rx,0,8,05,BE,00,00,00,00,00,00,
7671291,00000287,false,Rx,0,8,28,25,28,DF,27,10,03,00,
7676291,00000377,false,Rx,0,8,05,BE,00,CE,42,41,41,22,
7681291,00000388,false,Rx,0,8,01,00,00,00,00,00,00,02,
7686291,00000370,false,Rx,0,8,05,BE,00,00,00,00,00,00,
7691291,0000056D,false,Rx,0,8,2A,00,00,20,00,00,A8,AA,
7696291,00000377,false,Rx,0,8,05,BE,00,C9,42,41,41,22,
7701291,0000028B,false,Rx,0,8,27,10,4E,20,0D,40,01,14,
7706291,00000370,false,Rx,0,8,05,BE,00,00,00,00,00,00,
7711291,00000373,false,Rx,0,8,BF,BE,6F,52,0C,85,80,06,
7716291,00000377,false,Rx,0,8,05,BE,00,C9,42,41,41,22,
7721291,00000373,false,Rx,0,8,BF,BE,6F,93,0C,85,80,06,
7726291,0000038A,false,Rx,0,8,41,40,15,00,04,00,00,00,
7731291,0000056F,false,Rx,0,8,2A,88,AA,2A,00,00,28,0A,
7736291,00000377,false,Rx,0,8,05,BE,00,CE,42,41,41,22,
7741291,00000288,false,Rx,0,8,27,D1,55,55,0D,41,01,1C,
7746291,00000424,false,Rx,0,8,04,93,04,1F,09,4C,00,00,
7751291,0000056C,false,Rx,0,8,2A,88,02,20,00,00,A8,AA,
7756291,00000377,false,Rx,0,8,05,BE,00,CE,42,41,41,22,
7761291,0000056C,false,Rx,0,8,2A,88,02,20,00,00,A8,AA,
7766291,0000038A,false,Rx,0,8,41,40,15,00,04,00,00,00,
7771291,0000056C,false,Rx,0,8,2A,88,02,20,00,00,A8,AA,
7776291,00000377,false,Rx,0,8,05,BE,00,C9,42,41,41,22,
7781291,00000666,false,Rx,0,8,02,B6,61,EA,8C,00,00,00,
7786291,00000362,false,Rx,0,8,02,02,00,00,00,00,00,00,
7791291,0000075A,false,Rx,0,8,04,0F,03,EF,64,64,42,43,
7796291,00000362,false,Rx,0,8,02,02,00,00,00,00,00,00,
7801291,000005A1,false,Rx,0,8,2A,A2,AA,2A,A2,8A,82,A2,
7806291,00000362,false,Rx,0,8,02,02,00,00,00,00,00,00,
7811291,00000377,false,Rx,0,8,05,BE,00,CE,42,41,41,22,
7816291,00000362,false,Rx,0,8,02,02,00,00,00,00,00,00,
7821291,00000563,false,Rx,0,8,AA,AA,AA,AA,A2,2A,00,00,
7826291,00000362,false,Rx,0,8,02,02,00,00,00,00,00,00,
7831291,00000377,false,Rx,0,8,05,BE,00,CE,42,41,41,22,
7836291,00000362,false,Rx,0,8,02,02,00,00,00,00,00,00,
7841291,000005A1,false,Rx,0,8,2A,A2,AA,2A,A2,8A,82,A2,
7846291,00000289,false,Rx,0,8,27,D8,53,BA,0D,42,11,1C,
7851291,00000377,false,Rx,0,8,05,BE,00,CE,42,41,41,22,
7856291,00000566,false,Rx,0,8,22,8A,0A,A0,A8,A0,AA,8A,
7861291,00000371,false,Rx,0,8,30,00,00,00,00,00,00,00,
7866291,00000566,false,Rx,0,8,22,8A,0A,A0,A8,A0,AA,8A,
7871291,00000377,false,Rx,0,8,05,BE,00,C9,42,41,41,22,
7876291,0000028B,false,Rx,0,8,27,10,4E,20,0D,41,01,14,
7881291,00000371,false,Rx,0,8,30,00,00,00,00,00,00,00,
7886291,00000373,false,Rx,0,8,C0,C0,77,41,0C,91,80,06,
7891291,0000066C,false,Rx,0,8,02,9B,DE,18,73,00,00,00,
7896291,00000373,false,Rx,0,8,C0,C0,77,30,0C,91,80,06,
7901291,00000371,false,Rx,0,8,30,00,00,00,00,00,00,00,
7906291,00000734,false,Rx,0,8,03,E8,03,E8,64,64,3C,3D,
7911291,00000377,false,Rx,0,8,05,BC,00,C9,42,41,41,22,
7916291,00000288,false,Rx,0,8,27,84,55,FE,0D,42,01,1C,
7921291,00000287,false,Rx,0,8,27,85,27,D3,27,10,03,00,
7926291,00000564,false,Rx,0,8,22,8A,0A,AA,A8,A0,AA,8A,
7931291,00000287,false,Rx,0,8,27,85,27,D3,27,10,03,00,
7936291,00000564,false,Rx,0,8,22,8A,0A,AA,A8,A0,AA,8A,
7941291,00000287,false,Rx,0,8,27,85,27,D4,27,10,03,00,
7946291,0000075A,false,Rx,0,8,04,0B,03,ED,63,65,41,43,
7951291,00000287,false,Rx,0,8,27,84,27,D2,27,10,03,00,
7956291,00000564,false,Rx,0,8,22,8A,0A,AA,A8,A0,AA,8A,
7961291,00000362,false,Rx,0,8,02,02,00,00,00,00,00,00,
7966291,0000075A,false,Rx,0,8,04,09,03,EC,64,65,41,43,
7971291,00000362,false,Rx,0,8,02,02,00,00,00,00,00,00,
7976291,00000424,false,Rx,0,8,04,93,04,1F,09,4C,00,00,
7981291,00000154,false,Rx,0,8,6D,68,A0,69,0B,03,7A,B6,
7986291,00000377,false,Rx,0,8,05,BC,00,C9,42,41,41,22,
7991291,00000285,false,Rx,0,8,00,00,14,39,91,FE,0C,10,
7996291,00000564,false,Rx,0,8,22,8A,0A,AA,A8,A0,AA,8A,
8001291,00000285,false,Rx,0,8,00,00,14,39,91,FE,0C,10,
8006291,00000377,false,Rx,0,8,05,BE,00,C9,42,41,41,22,
8011291,00000285,false,Rx,0,8,00,00,14,39,91,FE,0C,10,
8016291,00000663,false,Rx,0,8,01,33,30,30,00,00,00,00,
8021291,00000289,false,Rx,0,8,27,E3,54,31,0D,42,11,1C,
8026291,00000377,false,Rx,0,8,05,BE,00,C9,42,41,41,22,
8031291,00000289,false,Rx,0,8,27,DC,54,3A,0D,42,11,1C,
8036291,00000564,false,Rx,0,8,22,8A,0A,AA,A8,A0,AA,8A,
8041291,0000028B,false,Rx,0,8,27,10,4E,20,0D,41,01,14,
8046291,000006FA,false,Rx,0,8,01,32,57,45,5A,30,30,31,
8051291,0000028B,false,Rx,0,8,27,10,4E,20,0D,41,01,14,
8056291,00000287,false,Rx,0,8,27,92,27,E9,27,10,03,00,
8061291,00000373,false,Rx,0,8,C0,C0,75,8D,0C,8E,80,06,
8066291,00000374,false,Rx,0,8,B3,B9,61,FE,4A,48,40,30,
8071291,00000373,false,Rx,0,8,C0,C0,75,8F,0C,8E,80,06,
8076291,00000287,false,Rx,0,8,27,93,27,EA,27,10,03,00,
8081291,00000734,false,Rx,0,8,03,E8,03,E8,64,64,3C,3D,
8086291,00000374,false,Rx,0,8,B3,B9,61,FE,4A,48,40,30,
8091291,00000288,false,Rx,0,8,27,94,56,9B,0D,42,01,1C,
8096291,00000287,false,Rx,0,8,27,93,27,EB,27,10,03,00,
8101291,00000288,false,Rx,0,8,27,94,56,A7,0D,42,01,1C,
8106291,00000374,false,Rx,0,8,B3,B9,61,FE,4A,48,40,30,
8111291,00000424,false,Rx,0,8,04,93,04,1F,09,4C,00,00,
8116291,00000287,false,Rx,0,8,27,93,27,EB,27,10,03,00,
8121291,0000075B,false,Rx,0,8,46,00,46,00,0F,B0,A4,43,
8126291,00000285,false,Rx,0,8,00,00,14,39,91,FE,0C,10,
8131291,00000288,false,Rx,0,8,27,94,56,C8,0D,42,01,1C,
8136291,00000362,false,Rx,0,8,02,02,00,00,00,00,00,00,
8141291,0000075B,false,Rx,0,8,46,00,46,00,0F,B0,A4,43,
8146291,00000362,false,Rx,0,8,02,02,00,00,00,00,00,00,
8151291,00000288,false,Rx,0,8,27,91,56,D6,0D,42,01,1C,
8156291,00000362,false,Rx,0,8,02,02,00,00,00,00,00,00,
8161291,00000377,false,Rx,0,8,05,BE,00,C9,42,41,41,22,
8166291,00000362,false,Rx,0,8,02,02,00,00,00,00,00,00,
8171291,00000569,false,Rx,0,8,AA,82,A2,02,00,00,00,00,
8176291,00000362,false,Rx,0,8,02,02,00,00,00,00,00,00,
8181291,00000377,false,Rx,0,8,05,BE,00,C9,42,41,41,22,
8186291,00000362,false,Rx,0,8,02,02,00,00,00,00,00,00,
8191291,00000288,false,Rx,0,8,27,90,57,00,0D,42,01,1C,
8196291,00000289,false,Rx,0,8,27,EE,54,9C,0D,42,11,1C,
8201291,00000287,false,Rx,0,8,27,91,27,E8,27,10,03,00,
8206291,00000289,false,Rx,0,8,27,E2,54,9D,0D,42,11,1C,
8211291,00000287,false,Rx,0,8,27,90,27,E6,27,10,03,00,
8216291,0000028B,false,Rx,0,8,27,10,4E,20,0D,41,01,14,
8221291,00000287,false,Rx,0,8,27,8F,27,E4,27,10,03,00,
8226291,0000056B,false,Rx,0,8,AA,02,00,00,80,AA,00,00,
8231291,00000287,false,Rx,0,8,27,8F,27,E4,27,10,03,00,
8236291,00000373,false,Rx,0,8,C0,BF,75,31,0C,8D,80,06,
8241291,00000287,false,Rx,0,8,27,8E,27,E3,27,10,03,00,
8246291,0000056B,false,Rx,0,8,AA,02,00,00,80,AA,00,00,
8251291,00000287,false,Rx,0,8,27,8E,27,E3,27,10,03,00,
8256291,00000734,false,Rx,0,8,03,E8,03,E8,64,64,3C,3D,
8261291,00000285,false,Rx,0,8,00,00,14,39,91,FE,0C,10,
8266291,00000565,false,Rx,0,8,AA,02,00,A8,A0,AA,00,00,
8271291,00000285,false,Rx,0,8,00,00,14,39,91,FE,0C,10,
8276291,00000565,false,Rx,0,8,AA,02,00,A8,A0,AA,00,00,
8281291,00000285,false,Rx,0,8,00,00,14,39,91,FE,0C,10,
8286291,00000565,false,Rx,0,8,AA,02,00,A8,A0,AA,00,00,
8291291,00000285,false,Rx,0,8,00,00,14,39,91,FE,0C,10,
8296291,0000075A,false,Rx,0,8,04,0C,03,F0,64,63,40,41,
8301291,00000285,false,Rx,0,8,00,00,14,39,91,FE,0C,10,
8306291,00000565,false,Rx,0,8,AA,02,00,A8,A0,AA,00,00,
8311291,00000362,false,Rx,0,8,02,02,00,00,00,00,00,00,
8316291,0000075A,false,Rx,0,8,04,0D,03,EF,64,65,40,41,
8321291,00000362,false,Rx,0,8,02,02,00,00,00,00,00,00,
8326291,00000565,false,Rx,0,8,AA,02,00,A8,A0,AA,00,00,
8331291,00000362,false,Rx,0,8,02,02,00,00,00,00,00,00,
8336291,00000377,false,Rx,0,8,05,BE,00,C9,42,41,41,22,
8341291,00000370,false,Rx,0,8,05,BE,00,00,00,00,00,00,
8346291,00000389,false,Rx,0,8,A0,00,00,40,40,40,00,00,
8351291,00000362,false,Rx,0,8,02,02,00,00,00,00,00,00,
8356291,00000377,false,Rx,0,8,05,BE,00,C9,42,41,41,22,
8361291,00000370,false,Rx,0,8,05,BE,00,00,00,00,00,00,
8366291,00000389,false,Rx,0,8,A0,00,00,40,40,40,00,00,
8371291,00000289,false,Rx,0,8,27,EB,54,FA,0D,42,11,1C,
8376291,00000377,false,Rx,0,8,05,BE,00,C9,42,41,41,22,
8381291,0000029A,false,Rx,0,8,01,32,57,45,5A,30,30,31,
8386291,00000389,false,Rx,0,8,A1,00,00,40,40,40,00,00,
8391291,00000732,false,Rx,0,8,04,12,03,F4,64,63,42,43,
8396291,00000377,false,Rx,0,8,05,BC,00,C9,42,41,41,22,
8401291,0000028B,false,Rx,0,8,27,10,4E,20,0D,41,01,14,
8406291,00000375,false,Rx,0,8,0F,0F,00,22,E5,00,00,00,
8411291,0000029B,false,Rx,0,8,40,3D,41,3D,40,21,1C,41,
8416291,00000285,false,Rx,0,8,00,00,14,39,91,FE,0C,10,
8421291,00000373,false,Rx,0,8,C0,BF,74,76,0C,8B,80,06,
8426291,00000375,false,Rx,0,8,0F,0F,00,22,E5,00,00,00,
8431291,00000734,false,Rx,0,8,03,E8,03,E8,64,64,3C,3D,
8436291,00000285,false,Rx,0,8,00,00,14,39,91,FE,0C,10,
8441291,00000288,false,Rx,0,8,27,92,57,BA,0D,42,01,1C,
8446291,00000375,false,Rx,0,8,0F,0F,00,22,E4,00,00,00,
8451291,00000298,false,Rx,0,8,47,42,41,43,40,00,00,41,
8456291,00000285,false,Rx,0,8,00,00,14,39,91,FE,0C,10,
8461291,00000288,false,Rx,0,8,27,8E,57,CC,0D,42,01,1C,
8466291,00000375,false,Rx,0,8,0F,0F,00,22,E4,00,00,00,
8471291,00000287,false,Rx,0,8,27,8F,27,E5,27,10,03,00,
8476291,00000370,false,Rx,0,8,05,BE,00,00,00,00,00,00,
8481291,00000287,false,Rx,0,8,27,8F,27,E4,27,10,03,00,
8486291,00000362,false,Rx,0,8,02,02,00,00,00,00,00,00,
8491291,0000075A,false,Rx,0,8,04,0D,03,ED,63,67,40,41,
8496291,00000362,false,Rx,0,8,02,02,00,00,00,00,00,00,
8501291,00000287,false,Rx,0,8,27,8E,27,E3,27,10,03,00,
8506291,00000362,false,Rx,0,8,02,02,00,00,00,00,00,00,
8511291,00000377,false,Rx,0,8,05,BE,00,C9,42,41,41,22,
8516291,00000424,false,Rx,0,8,04,93,04,1F,09,4C,00,00,
8521291,0000038A,false,Rx,0,8,41,40,15,00,04,00,00,00,
8526291,00000362,false,Rx,0,8,02,02,00,00,00,00,00,00,
8531291,00000377,false,Rx,0,8,05,BE,00,C5,43,41,41,22,
8536291,00000371,false,Rx,0,8,30,00,00,00,00,00,00,00,
8541291,00000285,false,Rx,0,8,00,00,14,39,91,FE,0C,10,
8546291,00000289,false,Rx,0,8,27,E8,55,51,0D,41,11,1C,
8551291,00000285,false,Rx,0,8,00,00,14,39,91,FE,0C,10,
8556291,00000388,false,Rx,0,8,01,00,00,00,00,00,00,02,
8561291,00000285,false,Rx,0,8,00,00,14,39,91,FE,0C,10,
8566291,00000732,false,Rx,0,8,04,10,03,F3,64,64,42,43,
8571291,00000285,false,Rx,0,8,00,00,14,39,91,FE,0C,10,
8576291,0000028B,false,Rx,0,8,27,10,4E,20,0D,41,01,14,
8581291,00000285,false,Rx,0,8,00,00,14,39,91,FE,0C,10,
8586291,00000373,false,Rx,0,8,C0,BF,74,54,0C,8A,80,06,
8591291,00000285,false,Rx,0,8,00,00,14,39,91,FE,0C,10,
8596291,00000373,false,Rx,0,8,C0,BF,74,7A,0C,8A,80,06,
8601291,00000285,false,Rx,0,8,00,00,14,39,91,FE,0C,10,
8606291,00000287,false,Rx,0,8,27,8B,27,DE,27,10,03,00,
8611291,00000424,false,Rx,0,8,04,93,04,1F,09,4C,00,00,
8616291,00000288,false,Rx,0,8,27,89,58,32,0D,42,01,1C,
8621291,00000285,false,Rx,0,8,00,00,14,39,91,FE,0C,10,
8626291,0000056C,false,Rx,0,8,2A,88,02,20,00,00,A8,AA,
8631291,00000370,false,Rx,0,8,05,BE,00,00,00,00,00,00,
8636291,0000056C,false,Rx,0,8,2A,88,02,20,00,00,A8,AA,
8641291,0000038A,false,Rx,0,8,41,40,15,00,04,00,00,00,
8646291,0000075A,false,Rx,0,8,04,0B,03,EF,64,65,40,41,
8651291,00000370,false,Rx,0,8,05,BE,00,00,00,00,00,00,
8656291,0000056C,false,Rx,0,8,2A,88,02,20,00,00,A8,AA,
8661291,00000362,false,Rx,0,8,02,02,00,00,00,00,00,00,
8666291,000005A1,false,Rx,0,8,2A,A2,AA,2A,A2,8A,82,A2,
8671291,00000362,false,Rx,0,8,02,02,00,00,00,00,00,00,
8676291,00000285,false,Rx,0,8,00,00,14,39,91,FE,0C,10,
8681291,00000362,false,Rx,0,8,02,02,00,00,00,00,00,00,
8686291,00000377,false,Rx,0,8,05,BE,00,C5,43,41,41,22,
8691291,00000362,false,Rx,0,8,02,02,00,00,00,00,00,00,
8696291,00000563,false,Rx,0,8,AA,AA,AA,AA,A2,2A,00,00,
8701291,00000362,false,Rx,0,8,02,02,00,00,00,00,00,00,
8706291,00000377,false,Rx,0,8,05,BE,00,C9,43,41,41,22,
8711291,00000362,false,Rx,0,8,02,02,00,00,00,00,00,00,
8716291,000005A1,false,Rx,0,8,2A,A2,AA,2A,A2,8A,82,A2,
8721291,00000289,false,Rx,0,8,27,67,55,A7,0D,42,11,1C,
8726291,00000377,false,Rx,0,8,05,BE,00,C9,43,41,41,22,
8731291,00000566,false,Rx,0,8,22,8A,0A,A0,A8,A0,AA,8A,
8736291,00000563,false,Rx,0,8,AA,AA,AA,AA,A2,2A,00,00,
8741291,00000732,false,Rx,0,8,03,F7,03,EC,64,64,42,43,
8746291,00000370,false,Rx,0,8,05,BE,00,00,00,00,00,00,
8751291,0000028B,false,Rx,0,8,27,10,4E,20,0D,41,01,14,
8756291,00000286,false,Rx,0,8,00,00,00,3D,00,00,21,00,
8761291,00000373,false,Rx,0,8,C1,C0,7B,5F,0C,94,80,06,
8766291,00000370,false,Rx,0,8,05,BE,00,00,00,00,00,00,
8771291,0000056A,false,Rx,0,8,22,8A,0A,A0,A8,A0,AA,8A,
8776291,00000286,false,Rx,0,8,00,00,00,3D,00,00,21,00,
8781291,00000734,false,Rx,0,8,03,E8,03,E8,64,64,3C,3D,
8786291,0000066C,false,Rx,0,8,02,9B,DE,18,73,00,00,00,
8791291,00000288,false,Rx,0,8,27,1C,58,81,0D,43,01,1C,
8796291,00000286,false,Rx,0,8,00,00,00,3D,00,00,21,00,
8801291,00000564,false,Rx,0,8,22,8A,0A,AA,A8,A0,AA,8A,
8806291,00000370,false,Rx,0,8,05,BE,00,00,00,00,00,00,
8811291,00000285,false,Rx,0,8,00,00,14,39,91,FE,0C,10,
8816291,00000286,false,Rx,0,8,00,00,00,3D,00,00,21,00,
8821291,0000075A,false,Rx,0,8,03,EA,03,E9,62,64,40,41,
8826291,00000370,false,Rx,0,8,05,BE,00,00,00,00,00,00,
8831291,00000285,false,Rx,0,8,00,00,14,39,91,FE,0C,10,
8836291,00000286,false,Rx,0,8,00,00,00,3D,00,00,21,00,
8841291,0000075A,false,Rx,0,8,03,E7,03,E9,62,64,40,41,
8846291,00000362,false,Rx,0,8,02,02,00,00,00,00,00,00,
8851291,00000285,false,Rx,0,8,00,00,14,39,91,FE,0C,10,
8856291,00000154,false,Rx,0,8,6C,68,A0,69,0B,03,7A,B6,
8861291,00000377,false,Rx,0,8,05,BE,00,C5,43,41,41,22,
8866291,00000362,false,Rx,0,8,02,02,00,00,00,00,00,00,
8871291,00000665,false,Rx,0,8,01,32,30,32,00,00,00,00,
8876291,00000287,false,Rx,0,8,26,D0,26,D8,27,10,03,00,
8881291,00000370,false,Rx,0,8,05,BE,00,00,00,00,00,00,
8886291,00000287,false,Rx,0,8,26,CA,26,D3,27,10,03,00,
8891291,00000568,false,Rx,0,8,00,02,80,0A,00,00,A8,AA,
8896291,00000289,false,Rx,0,8,26,D7,55,CB,0D,44,11,1C,
8901291,00000370,false,Rx,0,8,05,BE,00,00,00,00,00,00,
8906291,00000289,false,Rx,0,8,26,CD,55,C3,0D,44,11,1C,
8911291,00000663,false,Rx,0,8,01,33,30,30,00,00,00,00,
8916291,00000732,false,Rx,0,8,03,DD,03,EA,64,64,41,42,
8921291,00000370,false,Rx,0,8,05,BE,00,00,00,00,00,00,
8926291,0000028B,false,Rx,0,8,27,10,4E,20,0D,43,01,14,
8931291,00000568,false,Rx,0,8,00,02,80,0A,00,00,A8,AA,
8936291,00000373,false,Rx,0,8,C2,C2,82,D5,0C,A1,80,06,
8941291,00000374,false,Rx,0,8,B3,B9,62,FE,4A,48,40,30,
8946291,00000285,false,Rx,0,8,00,00,14,39,91,FE,0C,10,
8951291,00000564,false,Rx,0,8,22,8A,0A,AA,A8,A0,AA,8A,
8956291,00000734,false,Rx,0,8,03,E8,03,E8,64,64,3C,3D,
8961291,00000374,false,Rx,0,8,B3,B9,62,FE,4A,48,40,30,
8966291,00000288,false,Rx,0,8,26,C1,58,96,0D,44,01,1C,
8971291,00000568,false,Rx,0,8,00,02,80,0A,00,00,A8,AA,
8976291,0000075A,false,Rx,0,8,03,D4,03,EB,64,64,3F,40,
8981291,00000374,false,Rx,0,8,B3,B9,62,FE,4A,48,40,30,
8986291,00000288,false,Rx,0,8,26,C6,58,9A,0D,44,01,1C,
8991291,00000564,false,Rx,0,8,22,8A,0A,AA,A8,A0,AA,8A,
8996291,0000075B,false,Rx,0,8,46,00,47,00,0F,B0,A4,41,
9001291,00000374,false,Rx,0,8,B3,B9,62,FE,4A,48,40,30,
9006291,00000288,false,Rx,0,8,26,C2,58,8D,0D,44,01,1C,
9011291,00000287,false,Rx,0,8,26,C1,26,CB,27,10,03,00,
9016291,00000370,false,Rx,0,8,05,BE,00,00,00,00,00,00,
9021291,00000362,false,Rx,0,8,02,02,00,00,00,00,00,00,
9026291,00000288,false,Rx,0,8,26,C4,58,8B,0D,44,01,1C,
9031291,00000362,false,Rx,0,8,02,02,00,00,00,00,00,00,
9036291,00000377,false,Rx,0,8,05,BE,00,C9,43,41,41,22,
9041291,00000362,false,Rx,0,8,02,02,00,00,00,00,00,00,
9046291,00000569,false,Rx,0,8,AA,82,A2,02,00,00,00,00,
9051291,00000362,false,Rx,0,8,02,02,00,00,00,00,00,00,
9056291,00000377,false,Rx,0,8,05,BC,00,C5,43,41,41,22,
9061291,00000362,false,Rx,0,8,02,02,00,00,00,00,00,00,
9066291,00000288,false,Rx,0,8,26,BE,58,A3,0D,44,01,1C,
9071291,00000289,false,Rx,0,8,26,D0,55,C2,0D,44,11,1C,
9076291,00000377,false,Rx,0,8,05,BE,00,C9,43,41,41,22,
9081291,00000285,false,Rx,0,8,00,00,14,39,91,FE,0C,10,
9086291,00000569,false,Rx,0,8,AA,82,A2,02,00,00,00,00,
9091291,00000732,false,Rx,0,8,03,DB,03,EC,64,64,41,42,
9096291,00000377,false,Rx,0,8,05,BC,00,C5,43,41,41,22,
9101291,00000373,false,Rx,0,8,C2,C2,82,E4,0C,A2,80,06,
9106291,00000664,false,Rx,0,8,02,83,06,32,F3,00,00,00,
9111291,00000373,false,Rx,0,8,C2,C2,83,2C,0C,A2,80,06,
9116291,00000185,false,Rx,0,8,08,00,1D,00,00,00,00,00,
9121291,00000373,false,Rx,0,8,C3,C2,83,31,0C,A2,80,06,
9126291,00000569,false,Rx,0,8,AA,82,A2,02,00,00,00,00,
9131291,00000734,false,Rx,0,8,03,E8,03,E8,64,64,3C,3D,
9136291,00000185,false,Rx,0,8,08,00,1D,00,00,00,00,00,
9141291,00000288,false,Rx,0,8,26,AE,58,8D,0D,44,01,1C,
9146291,00000288,false,Rx,0,8,26,B0,58,8F,0D,44,01,1C,
9151291,00000370,false,Rx,0,8,05,BE,00,00,00,00,00,00,
9156291,00000287,false,Rx,0,8,26,AE,26,BB,27,10,03,00,
9161291,00000565,false,Rx,0,8,AA,02,00,A8,A0,AA,00,00,
9166291,00000287,false,Rx,0,8,26,AC,26,B9,27,10,03,00,
9171291,0000075A,false,Rx,0,8,03,CE,03,EB,64,65,3F,40,
9176291,00000287,false,Rx,0,8,26,A8,26,B6,27,10,03,00,
9181291,00000565,false,Rx,0,8,AA,02,00,A8,A0,AA,00,00,
9186291,00000287,false,Rx,0,8,26,A4,26,B2,27,10,03,00,
9191291,0000075A,false,Rx,0,8,03,CC,03,ED,64,63,3F,40,
