Time Stamp,ID,Extended,Dir,Bus,LEN,D1,D2,D3,D4,D5,D6,D7,D8
-1620546109360043,00000288,false,Rx,0,8,27,10,4D,F5,00,00,01,00,
-1620546109359744,00000298,false,Rx,0,8,00,36,37,69,35,00,00,00,
-1620546109359360,0000075A,false,Rx,0,8,03,E8,03,E8,64,64,35,36,
-1620546109358507,0000028B,false,Rx,0,8,27,10,4E,0B,00,00,01,00,
-1620546109358209,0000029B,false,Rx,0,8,00,36,37,69,35,0A,00,00,
-1620546109357995,00000734,false,Rx,0,8,03,E8,03,E8,64,64,35,36,
-1620546109350315,00000288,false,Rx,0,8,27,10,4D,85,00,00,01,00,
-1620546109350059,00000564,false,Rx,0,8,00,0A,00,00,00,00,00,00,
-1620546109349761,00000665,false,Rx,0,8,00,39,34,31,30,41,31,32,
-1620546109348865,0000028B,false,Rx,0,8,27,10,4D,D8,00,00,01,00,
-1620546109348566,0000056A,false,Rx,0,8,00,0A,00,00,00,00,00,00,
-1620546109348310,00000669,false,Rx,0,8,00,39,34,31,30,41,31,32,
-1620546109340331,00000288,false,Rx,0,8,27,10,4D,6C,00,00,01,00,
-1620546109340075,00000565,false,Rx,0,8,00,00,00,00,00,00,00,00,
-1620546109339819,0000075A,false,Rx,0,8,03,E8,03,E8,64,64,35,36,
-1620546109338881,0000028B,false,Rx,0,8,27,10,4D,C5,00,00,01,00,
-1620546109338539,0000056B,false,Rx,0,8,00,00,00,00,00,00,00,00,
-1620546109338326,00000734,false,Rx,0,8,03,E8,03,E8,64,64,35,36,
-1620546109330305,00000288,false,Rx,0,8,27,10,4D,6A,00,00,01,04,
-1620546109330049,0000056C,false,Rx,0,8,00,00,00,00,00,00,00,80,
-1620546109329793,00000666,false,Rx,0,8,01,3E,3A,B5,A7,00,00,00,
-1620546109328854,0000028B,false,Rx,0,8,27,10,4D,C0,00,00,01,04,
-1620546109328556,0000056F,false,Rx,0,8,00,00,00,00,00,00,00,80,
-1620546109328300,0000066A,false,Rx,0,8,01,55,EC,48,D8,00,00,00,
-1620546109320364,00000288,false,Rx,0,8,27,10,4D,71,00,00,01,04,
-1620546109320108,0000075A,false,Rx,0,8,03,E8,03,E8,64,64,35,36,
-1620546109319852,0000075B,false,Rx,0,8,00,00,00,00,06,5B,A0,35,
-1620546109318870,0000028B,false,Rx,0,8,27,10,4D,C5,00,00,01,04,
-1620546109318572,00000734,false,Rx,0,8,03,E8,03,E8,64,64,35,36,
-1620546109318316,00000735,false,Rx,0,8,00,00,00,00,06,69,A0,36,
-1620546109310337,00000288,false,Rx,0,8,27,10,4D,74,00,00,01,04,
-1620546109308844,0000028B,false,Rx,0,8,27,10,4D,C5,00,00,01,04,
-1620546109300353,00000288,false,Rx,0,8,27,10,4D,77,00,00,01,04,
-1620546109300097,00000564,false,Rx,0,8,00,0A,00,00,00,00,00,00,
-1620546109299841,0000075A,false,Rx,0,8,03,E8,03,E8,64,64,35,36,
-1620546109298860,0000028B,false,Rx,0,8,27,10,4D,C8,00,00,01,04,
-1620546109298561,0000056A,false,Rx,0,8,00,0A,00,00,00,00,00,00,
-1620546109298305,00000734,false,Rx,0,8,03,E8,03,E8,64,64,35,36,
-1620546109290327,00000288,false,Rx,0,8,27,10,4D,7C,00,00,01,04,
-1620546109290071,00000565,false,Rx,0,8,00,00,00,00,00,00,00,00,
-1620546109288876,0000028B,false,Rx,0,8,27,10,4D,CD,00,00,01,04,
-1620546109288578,0000056B,false,Rx,0,8,00,00,00,00,00,00,00,00,
-1620546109280514,00000288,false,Rx,0,8,27,10,4D,7F,00,00,01,04,
-1620546109280258,0000056C,false,Rx,0,8,00,00,00,00,00,00,00,80,
-1620546109280002,0000075A,false,Rx,0,8,03,E8,03,E8,64,64,35,36,
-1620546109278850,0000028B,false,Rx,0,8,27,10,4D,D3,00,00,01,04,
-1620546109278551,0000056F,false,Rx,0,8,00,00,00,00,00,00,00,80,
-1620546109278295,00000734,false,Rx,0,8,03,E8,03,E8,64,64,35,36,
-1620546109270317,00000288,false,Rx,0,8,27,10,4D,7F,00,00,01,04,
-1620546109268866,0000028B,false,Rx,0,8,27,10,4D,DB,00,00,01,04,
-1620546109260375,00000288,false,Rx,0,8,27,10,4D,7C,00,00,01,04,
-1620546109260119,00000298,false,Rx,0,8,00,36,37,69,35,00,00,00,
-1620546109259863,0000075A,false,Rx,0,8,03,E8,03,E8,64,64,35,36,
-1620546109258882,0000028B,false,Rx,0,8,27,10,4D,E0,00,00,01,04,
-1620546109258583,0000029B,false,Rx,0,8,00,36,37,69,35,0A,00,00,
-1620546109258327,00000734,false,Rx,0,8,03,E8,03,E8,64,64,35,36,
-1620546109250349,00000288,false,Rx,0,8,27,10,4D,78,00,00,01,04,
-1620546109250093,00000564,false,Rx,0,8,00,0A,00,00,00,00,00,00,
-1620546109248856,0000028B,false,Rx,0,8,27,10,4D,E8,00,00,01,04,
-1620546109248557,0000056A,false,Rx,0,8,00,0A,00,00,00,00,00,00,
-1620546109240365,00000288,false,Rx,0,8,27,10,4D,73,00,00,01,04,
-1620546109240066,00000565,false,Rx,0,8,00,00,00,00,00,00,00,00,
-1620546109239853,0000075A,false,Rx,0,8,03,E8,03,E8,64,64,35,36,
-1620546109238872,0000028B,false,Rx,0,8,27,10,4D,ED,00,00,01,04,
-1620546109238573,0000056B,false,Rx,0,8,00,00,00,00,00,00,00,00,
-1620546109238317,00000734,false,Rx,0,8,03,E8,03,E8,64,64,35,36,
-1620546109230339,00000288,false,Rx,0,8,27,10,4D,72,00,00,01,04,
-1620546109230040,0000056C,false,Rx,0,8,00,00,00,00,00,00,00,80,
-1620546109228888,0000028B,false,Rx,0,8,27,10,4D,F5,00,00,01,04,
-1620546109228547,0000056F,false,Rx,0,8,00,00,00,00,00,00,00,80,
-1620546109220525,00000288,false,Rx,0,8,27,10,4D,74,00,00,01,04,
-1620546109220269,0000075A,false,Rx,0,8,03,E8,03,E8,64,64,35,36,
-1620546109220013,0000075B,false,Rx,0,8,00,00,00,00,06,5B,A0,35,
-1620546109218861,0000028B,false,Rx,0,8,27,10,4D,FB,00,00,01,04,
-1620546109218563,00000734,false,Rx,0,8,03,E8,03,E8,64,64,35,36,
-1620546109218307,00000735,false,Rx,0,8,00,00,00,00,06,69,A0,36,
-1620546109210328,00000288,false,Rx,0,8,27,10,4D,77,00,00,01,04,
-1620546109208878,0000028B,false,Rx,0,8,27,10,4E,03,00,00,01,04,
-1620546109200387,00000288,false,Rx,0,8,27,10,4D,7B,00,00,01,04,
-1620546109200088,00000564,false,Rx,0,8,00,0A,00,00,00,00,00,80,
-1620546109199832,0000075A,false,Rx,0,8,03,E8,03,E8,64,64,35,36,
-1620546109198851,0000028B,false,Rx,0,8,27,10,4E,08,00,00,01,04,
-1620546109198552,0000056A,false,Rx,0,8,00,0A,00,00,00,00,00,80,
-1620546109198339,00000734,false,Rx,0,8,03,E8,03,E8,64,64,35,36,
-1620546109190360,00000288,false,Rx,0,8,27,10,4D,7C,00,00,01,04,
-1620546109190104,00000565,false,Rx,0,8,00,00,00,00,00,00,00,00,
-1620546109188867,0000028B,false,Rx,0,8,27,10,4E,10,00,00,01,04,
-1620546109188568,0000056B,false,Rx,0,8,00,00,00,00,00,00,00,00,
-1620546109180377,00000288,false,Rx,0,8,27,10,4D,7A,00,00,01,04,
-1620546109180078,0000056C,false,Rx,0,8,00,00,00,00,00,00,00,80,
-1620546109179779,0000075A,false,Rx,0,8,03,E8,03,E8,64,64,35,36,
-1620546109178883,0000028B,false,Rx,0,8,27,10,4E,15,00,00,01,04,
-1620546109178585,0000056F,false,Rx,0,8,00,00,00,00,00,00,00,80,
-1620546109178329,00000734,false,Rx,0,8,03,E8,03,E8,64,64,35,36,
-1620546109170350,00000288,false,Rx,0,8,27,10,4D,76,00,00,01,04,
-1620546109168857,0000028B,false,Rx,0,8,27,10,4E,1D,00,00,01,04,
-1620546109160537,00000288,false,Rx,0,8,27,10,4D,71,00,00,01,04,
-1620546109160281,00000298,false,Rx,0,8,00,36,37,69,35,00,00,00,
-1620546109160025,0000075A,false,Rx,0,8,03,E8,03,E8,64,64,35,36,
-1620546109158873,0000028B,false,Rx,0,8,27,10,4E,25,00,00,01,04,
-1620546109158574,0000029B,false,Rx,0,8,00,36,37,69,35,0A,00,00,
-1620546109158318,00000734,false,Rx,0,8,03,E8,03,E8,64,64,35,36,
-1620546109150297,00000288,false,Rx,0,8,27,10,4D,6C,00,00,01,04,
-1620546109149998,00000564,false,Rx,0,8,00,0A,00,00,00,00,00,80,
-1620546109148889,0000028B,false,Rx,0,8,27,10,4E,2B,00,00,01,04,
-1620546109148590,0000056A,false,Rx,0,8,00,0A,00,00,00,00,00,80,
-1620546109140356,00000288,false,Rx,0,8,27,10,4D,6B,00,00,01,04,
-1620546109140100,00000565,false,Rx,0,8,00,00,00,00,00,00,00,00,
-1620546109139844,0000075A,false,Rx,0,8,03,E8,03,E8,64,64,35,36,
-1620546109138863,0000028B,false,Rx,0,8,27,10,4E,33,00,00,01,04,
-1620546109138564,0000056B,false,Rx,0,8,00,00,00,00,00,00,00,00,
-1620546109138308,00000734,false,Rx,0,8,03,E8,03,E8,64,64,35,36,
-1620546109130372,00000288,false,Rx,0,8,27,10,4D,6D,00,00,01,04,
-1620546109130073,0000056C,false,Rx,0,8,00,00,00,00,00,00,00,80,
-1620546109128879,0000028B,false,Rx,0,8,27,10,4E,38,00,00,01,04,
-1620546109128580,0000056F,false,Rx,0,8,00,00,00,00,00,00,00,80,
-1620546109120346,00000288,false,Rx,0,8,27,10,4D,72,00,00,01,04,
-1620546109120090,0000075A,false,Rx,0,8,03,E8,03,E8,64,64,35,36,
-1620546109119834,0000075B,false,Rx,0,8,00,00,00,00,06,5B,A0,35,
-1620546109118852,0000028B,false,Rx,0,8,27,10,4E,40,00,00,01,04,
-1620546109118596,00000734,false,Rx,0,8,03,E8,03,E8,64,64,35,36,
-1620546109118340,00000735,false,Rx,0,8,00,00,00,00,06,69,A0,36,
-1620546109110319,00000288,false,Rx,0,8,27,10,4D,77,00,00,01,04,
-1620546109108868,0000028B,false,Rx,0,8,27,10,4E,45,00,00,01,04,
-1620546109100506,00000288,false,Rx,0,8,27,10,4D,78,00,00,01,04,
-1620546109100250,00000564,false,Rx,0,8,00,0A,00,00,00,00,00,80,
-1620546109099994,0000075A,false,Rx,0,8,03,E8,03,E8,64,64,35,36,
-1620546109098885,0000028B,false,Rx,0,8,27,10,4E,4D,00,00,01,04,
-1620546109098586,0000056A,false,Rx,0,8,00,0A,00,00,00,00,00,80,
-1620546109098330,00000734,false,Rx,0,8,03,E8,03,E8,64,64,35,36,
-1620546109090309,00000288,false,Rx,0,8,27,10,4D,77,00,00,01,04,
-1620546109090053,00000565,false,Rx,0,8,00,00,00,00,00,00,00,00,
-1620546109088858,0000028B,false,Rx,0,8,27,10,4E,53,00,00,01,04,
-1620546109088559,0000056B,false,Rx,0,8,00,00,00,00,00,00,00,00,
-1620546109080368,00000288,false,Rx,0,8,27,10,4D,73,00,00,01,04,
-1620546109080112,0000056C,false,Rx,0,8,00,00,00,00,00,00,00,80,
-1620546109079856,0000075A,false,Rx,0,8,03,E8,03,E8,64,64,35,36,
-1620546109078874,0000028B,false,Rx,0,8,27,10,4E,5B,00,00,01,04,
-1620546109078576,0000056F,false,Rx,0,8,00,00,00,00,00,00,00,80,
-1620546109078320,00000734,false,Rx,0,8,03,E8,03,E8,64,64,35,36,
-1620546109070341,00000288,false,Rx,0,8,27,10,4D,6E,00,00,01,04,
-1620546109068848,0000028B,false,Rx,0,8,27,10,4E,60,00,00,01,04,
-1620546109060357,00000288,false,Rx,0,8,27,10,4D,6C,00,00,01,04,
-1620546109060101,00000298,false,Rx,0,8,00,36,37,69,35,00,00,00,
-1620546109059845,0000075A,false,Rx,0,8,03,E8,03,E8,64,64,35,36,
-1620546109058864,0000028B,false,Rx,0,8,27,10,4E,68,00,00,01,04,
-1620546109058608,0000029B,false,Rx,0,8,00,36,37,69,35,0A,00,00,
-1620546109058352,00000734,false,Rx,0,8,03,E8,03,E8,64,64,35,36,
-1620546109050331,00000288,false,Rx,0,8,27,10,4D,6E,00,00,01,04,
-1620546109050075,00000564,false,Rx,0,8,00,0A,00,00,00,00,00,80,
-1620546109048880,0000028B,false,Rx,0,8,27,10,4E,70,00,00,01,04,
-1620546109048581,0000056A,false,Rx,0,8,00,0A,00,00,00,00,00,80,
-1620546109040517,00000288,false,Rx,0,8,27,10,4D,72,00,00,01,04,
-1620546109040261,00000565,false,Rx,0,8,00,00,00,00,00,00,00,00,
-1620546109040005,0000075A,false,Rx,0,8,03,E8,03,E8,64,64,35,36,
-1620546109038854,0000028B,false,Rx,0,8,27,10,4E,78,00,00,01,04,
-1620546109038598,0000056B,false,Rx,0,8,00,00,00,00,00,00,00,00,
-1620546109038342,00000734,false,Rx,0,8,03,E8,03,E8,64,64,35,36,
-1620546109030320,00000288,false,Rx,0,8,27,10,4D,75,00,00,01,04,
-1620546109029979,0000056C,false,Rx,0,8,00,00,00,00,00,00,00,80,
-1620546109028870,0000028B,false,Rx,0,8,27,10,4E,7B,00,00,01,04,
-1620546109028571,0000056F,false,Rx,0,8,00,00,00,00,00,00,00,80,
-1620546109020379,00000288,false,Rx,0,8,27,10,4D,74,00,00,01,04,
-1620546109020123,0000075A,false,Rx,0,8,03,E8,03,E8,64,64,35,36,
-1620546109019867,0000075B,false,Rx,0,8,00,00,00,00,06,5B,A0,35,
-1620546109018886,0000028B,false,Rx,0,8,27,10,4E,7D,00,00,01,04,
-1620546109018587,00000734,false,Rx,0,8,03,E8,03,E8,64,64,35,36,
-1620546109018331,00000735,false,Rx,0,8,00,00,00,00,06,69,A0,36,
-1620546109010353,00000288,false,Rx,0,8,27,10,4D,71,00,00,01,04,
-1620546109008859,0000028B,false,Rx,0,8,27,10,4E,7B,00,00,01,04,
-1620546109000369,00000288,false,Rx,0,8,27,10,4D,6B,00,00,01,04,
-1620546109000070,00000564,false,Rx,0,8,00,0A,00,00,00,00,00,80,
-1620546108999857,0000075A,false,Rx,0,8,03,E8,03,E8,64,64,35,36,
-1620546108998875,0000028B,false,Rx,0,8,27,10,4E,78,00,00,01,04,
-1620546108998577,0000056A,false,Rx,0,8,00,0A,00,00,00,00,00,80,
-1620546108998321,00000734,false,Rx,0,8,03,E8,03,E8,64,64,35,36,
-1620546108990342,00000288,false,Rx,0,8,27,10,4D,67,00,00,01,04,
-1620546108990044,00000565,false,Rx,0,8,00,00,00,00,00,00,00,00,
-1620546108988892,0000028B,false,Rx,0,8,27,10,4E,73,00,00,01,04,
-1620546108988593,0000056B,false,Rx,0,8,00,00,00,00,00,00,00,00,
-1620546108980529,00000288,false,Rx,0,8,27,10,4D,67,00,00,01,04,
-1620546108980273,0000056C,false,Rx,0,8,00,00,00,00,00,00,00,80,
-1620546108980017,0000075A,false,Rx,0,8,03,E8,03,E8,64,64,35,36,
-1620546108978865,0000028B,false,Rx,0,8,27,10,4E,6D,00,00,01,04,
-1620546108978609,0000056F,false,Rx,0,8,00,00,00,00,00,00,00,80,
-1620546108978353,00000734,false,Rx,0,8,03,E8,03,E8,64,64,35,36,
-1620546108970332,00000288,false,Rx,0,8,27,10,4D,69,00,00,01,04,
-1620546108968881,0000028B,false,Rx,0,8,27,10,4E,65,00,00,01,04,
-1620546108960348,00000288,false,Rx,0,8,27,10,4D,6D,00,00,01,04,
-1620546108960092,00000298,false,Rx,0,8,00,36,37,69,35,00,00,00,
-1620546108959879,0000075A,false,Rx,0,8,03,E8,03,E8,64,64,35,36,
-1620546108958855,0000028B,false,Rx,0,8,27,10,4E,60,00,00,01,04,
-1620546108958599,0000029B,false,Rx,0,8,00,36,37,69,35,0A,00,00,
-1620546108958343,00000734,false,Rx,0,8,03,E8,03,E8,64,64,35,36,
-1620546108950364,00000288,false,Rx,0,8,27,10,4D,72,00,00,01,04,
-1620546108950108,00000564,false,Rx,0,8,00,0A,00,00,00,00,00,80,
-1620546108948871,0000028B,false,Rx,0,8,27,10,4E,58,00,00,01,04,
-1620546108948615,0000056A,false,Rx,0,8,00,0A,00,00,00,00,00,80,
-1620546108940380,00000288,false,Rx,0,8,27,10,4D,72,00,00,01,04,
-1620546108940082,00000565,false,Rx,0,8,00,00,00,00,00,00,00,00,
-1620546108939826,0000075A,false,Rx,0,8,03,E8,03,E8,64,64,35,36,
-1620546108938887,0000028B,false,Rx,0,8,27,10,4E,53,00,00,01,04,
-1620546108938588,0000056B,false,Rx,0,8,00,00,00,00,00,00,00,00,
-1620546108938332,00000734,false,Rx,0,8,03,E8,03,E8,64,64,35,36,
-1620546108930311,00000288,false,Rx,0,8,27,10,4D,6F,00,00,01,04,
-1620546108930055,0000056C,false,Rx,0,8,00,00,00,00,00,00,00,80,
-1620546108928861,0000028B,false,Rx,0,8,27,10,4E,4D,00,00,01,04,
-1620546108928605,0000056F,false,Rx,0,8,00,00,00,00,00,00,00,80,
-1620546108920370,00000288,false,Rx,0,8,27,10,4D,6B,00,00,01,04,
-1620546108920114,0000075A,false,Rx,0,8,03,E8,03,E8,64,64,35,36,
-1620546108919858,0000075B,false,Rx,0,8,00,00,00,00,06,5B,A0,35,
-1620546108918877,0000028B,false,Rx,0,8,27,10,4E,4D,00,00,01,04,
-1620546108918621,00000734,false,Rx,0,8,03,E8,03,E8,64,64,35,36,
-1620546108918365,00000735,false,Rx,0,8,00,00,00,00,06,69,A0,36,
-1620546108910301,00000288,false,Rx,0,8,27,10,4D,66,00,00,01,04,
-1620546108908893,0000028B,false,Rx,0,8,27,10,4E,4D,00,00,01,04,
-1620546108900360,00000288,false,Rx,0,8,27,10,4D,61,00,00,01,04,
-1620546108900104,00000564,false,Rx,0,8,00,0A,00,00,00,00,00,80,
-1620546108899848,0000075A,false,Rx,0,8,03,E8,03,E8,64,64,35,36,
-1620546108898866,0000028B,false,Rx,0,8,27,10,4E,53,00,00,01,04,
-1620546108898610,0000056A,false,Rx,0,8,00,0A,00,00,00,00,00,80,
-1620546108898354,00000734,false,Rx,0,8,03,E8,03,E8,64,64,35,36,
-1620546108890376,00000288,false,Rx,0,8,27,10,4D,5E,00,00,01,04,
-1620546108890077,00000565,false,Rx,0,8,00,00,00,00,00,00,00,00,
-1620546108888883,0000028B,false,Rx,0,8,27,10,4E,55,00,00,01,04,
-1620546108888584,0000056B,false,Rx,0,8,00,00,00,00,00,00,00,00,
-1620546108880349,00000288,false,Rx,0,8,27,10,4D,60,00,00,01,04,
-1620546108880093,0000056C,false,Rx,0,8,00,00,00,00,00,00,00,80,
-1620546108879795,0000075A,false,Rx,0,8,03,E8,03,E8,64,64,35,36,
-1620546108878856,0000028B,false,Rx,0,8,27,10,4E,5D,00,00,01,04,
-1620546108878600,0000056F,false,Rx,0,8,00,00,00,00,00,00,00,80,
-1620546108878344,00000734,false,Rx,0,8,03,E8,03,E8,64,64,35,36,
-1620546108870323,00000288,false,Rx,0,8,27,10,4D,63,00,00,01,04,
-1620546108868872,0000028B,false,Rx,0,8,27,10,4E,63,00,00,01,04,
-1620546108860552,00000288,false,Rx,0,8,27,10,4D,64,00,00,05,04,
-1620546108860296,00000298,false,Rx,0,8,FF,36,37,69,35,00,00,FF,
-1620546108860040,0000075A,false,Rx,0,8,03,E8,03,E8,64,64,35,36,
-1620546108858888,0000028B,false,Rx,0,8,27,10,4E,68,00,00,05,04,
-1620546108858632,0000029B,false,Rx,0,8,FF,36,37,69,35,0A,00,FF,
-1620546108858376,00000734,false,Rx,0,8,03,E8,03,E8,64,64,35,36,
-1620546108850056,00000288,false,Rx,0,8,27,10,FF,FF,00,00,05,04,
-1620546108849800,00000564,false,Rx,0,8,02,0A,02,00,E0,E0,A0,8A,
-1620546108849544,00000665,false,Rx,0,8,01,38,30,30,00,00,00,00,
-1620546108848478,0000028B,false,Rx,0,8,27,10,FF,FF,00,00,05,04,
-1620546108848179,0000056A,false,Rx,0,8,02,0A,02,00,E0,E0,A0,8A,
-1620546108847923,00000669,false,Rx,0,8,01,39,30,30,00,00,00,00,
-1620546108840030,00000288,false,Rx,0,8,27,10,FF,FF,00,00,05,04,
-1620546108839731,00000565,false,Rx,0,8,3A,00,00,00,00,A2,00,00,
-1620546108839305,0000075A,false,Rx,0,8,03,E8,03,E8,64,64,35,36,
-1620546108838494,0000028B,false,Rx,0,8,27,10,FF,FF,00,00,05,04,
-1620546108838238,0000056B,false,Rx,0,8,3A,00,00,00,00,A2,00,00,
-1620546108837982,00000734,false,Rx,0,8,03,E8,03,E8,64,64,35,36,
-1620546108830046,00000288,false,Rx,0,8,27,10,FF,FF,00,00,05,04,
-1620546108829790,0000056C,false,Rx,0,8,28,80,03,20,00,00,28,8A,
-1620546108829363,00000666,false,Rx,0,8,01,3E,3A,B5,A7,00,00,00,
-1620546108828510,0000028B,false,Rx,0,8,27,10,FF,FF,00,00,05,04,
-1620546108828254,0000056F,false,Rx,0,8,28,80,03,20,00,00,28,8A,
-1620546108828041,0000066A,false,Rx,0,8,01,55,EC,48,D8,00,00,00,
-1620546108820062,00000288,false,Rx,0,8,27,10,FF,FF,00,00,05,04,
-1620546108819806,0000075A,false,Rx,0,8,03,E8,03,E8,64,64,35,36,
-1620546108819550,0000075B,false,Rx,0,8,FF,00,FF,00,06,5B,A0,35,
-1620546108818484,0000028B,false,Rx,0,8,27,10,FF,FF,00,00,05,04,
-1620546108818228,00000734,false,Rx,0,8,03,E8,03,E8,64,64,35,36,
-1620546108817972,00000735,false,Rx,0,8,FF,00,FF,00,06,69,A0,36,
-1620546108810136,00000288,false,Rx,0,8,27,10,FF,FF,00,00,05,04,
-1620546108808642,0000028B,false,Rx,0,8,27,10,FF,FF,00,00,05,04,
-1620546108800152,00000288,false,Rx,0,8,27,10,FF,FF,00,00,05,04,
-1620546108799896,00000564,false,Rx,0,8,02,0A,02,00,E0,E0,A0,8A,
-1620546108799640,0000075A,false,Rx,0,8,03,E8,03,E8,64,64,35,36,
-1620546108798573,0000028B,false,Rx,0,8,27,10,FF,FF,00,00,05,04,
-1620546108798317,0000056A,false,Rx,0,8,02,0A,02,00,E0,E0,A0,8A,
-1620546108798019,00000734,false,Rx,0,8,03,E8,03,E8,64,64,35,36,
-1620546108790125,00000288,false,Rx,0,8,27,10,FF,FF,00,00,05,04,
-1620546108789827,00000565,false,Rx,0,8,3A,00,00,00,00,A2,00,00,
-1620546108788589,0000028B,false,Rx,0,8,27,10,FF,FF,00,00,05,04,
-1620546108788333,0000056B,false,Rx,0,8,3A,00,00,00,00,A2,00,00,
-1620546108780142,00000288,false,Rx,0,8,27,10,FF,FF,00,00,05,04,
-1620546108779886,0000056C,false,Rx,0,8,28,80,03,20,00,00,28,8A,
-1620546108779459,0000075A,false,Rx,0,8,03,E8,03,E8,64,64,35,36,
-1620546108778606,0000028B,false,Rx,0,8,27,10,FF,FF,00,00,05,04,
-1620546108778307,0000056F,false,Rx,0,8,28,80,03,20,00,00,28,8A,
-1620546108778008,00000734,false,Rx,0,8,03,E8,03,E8,64,64,35,36,
-1620546108770158,00000288,false,Rx,0,8,27,10,FF,FF,00,00,05,04,
-1620546108768579,0000028B,false,Rx,0,8,27,10,FF,FF,00,00,05,04,
-1620546108760131,00000288,false,Rx,0,8,27,10,FF,FF,00,00,05,04,
-1620546108759833,00000298,false,Rx,0,8,FF,36,37,69,35,00,00,FF,
-1620546108759406,0000075A,false,Rx,0,8,03,E8,03,E8,64,64,35,36,
-1620546108758638,0000028B,false,Rx,0,8,27,10,FF,FF,00,00,05,04,
-1620546108758382,0000029B,false,Rx,0,8,FF,36,37,69,35,0A,00,FF,
-1620546108758126,00000734,false,Rx,0,8,03,E8,03,E8,64,64,35,36,
-1620546108750147,00000288,false,Rx,0,8,27,10,FF,FF,00,00,05,04,
-1620546108749891,00000564,false,Rx,0,8,02,0A,02,00,E0,E0,A0,8A,
-1620546108748569,0000028B,false,Rx,0,8,27,10,FF,FF,00,00,05,04,
-1620546108748313,0000056A,false,Rx,0,8,02,0A,02,00,E0,E0,A0,8A,
-1620546108740164,00000288,false,Rx,0,8,27,10,FF,FF,00,00,05,04,
-1620546108739908,00000565,false,Rx,0,8,3A,00,00,00,00,A2,00,00,
-1620546108739652,0000075A,false,Rx,0,8,03,E8,03,E8,64,64,35,36,
-1620546108738628,0000028B,false,Rx,0,8,27,10,FF,FF,00,00,05,04,
-1620546108738372,0000056B,false,Rx,0,8,3A,00,00,00,00,A2,00,00,
-1620546108738116,00000734,false,Rx,0,8,03,E8,03,E8,64,64,35,36,
-1620546108730137,00000288,false,Rx,0,8,27,10,FF,FF,00,00,05,04,
-1620546108729881,0000056C,false,Rx,0,8,28,80,03,20,00,00,28,8A,
-1620546108728601,0000028B,false,Rx,0,8,27,10,FF,FF,00,00,05,04,
-1620546108728302,0000056F,false,Rx,0,8,28,80,03,20,00,00,28,8A,
-1620546108720153,00000288,false,Rx,0,8,27,10,FF,FF,00,00,05,04,
-1620546108719897,0000075A,false,Rx,0,8,03,E8,03,E8,64,64,35,36,
-1620546108719641,0000075B,false,Rx,0,8,FF,00,FF,00,06,5B,A0,35,
-1620546108718617,0000028B,false,Rx,0,8,27,10,FF,FF,00,00,05,04,
-1620546108718361,00000734,false,Rx,0,8,03,E8,03,E8,64,64,35,36,
-1620546108718105,00000735,false,Rx,0,8,FF,00,FF,00,06,69,A0,36,
-1620546108710127,00000288,false,Rx,0,8,27,10,FF,FF,00,00,05,04,
-1620546108708633,0000028B,false,Rx,0,8,27,10,FF,FF,00,00,05,04,
-1620546108700143,00000288,false,Rx,0,8,27,10,FF,FF,00,00,05,04,
-1620546108699887,00000564,false,Rx,0,8,02,0A,02,00,E0,E0,A0,8A,
-1620546108699460,0000075A,false,Rx,0,8,03,E8,03,E8,64,64,35,36,
-1620546108698607,0000028B,false,Rx,0,8,27,10,FF,FF,00,00,05,04,
-1620546108698351,0000056A,false,Rx,0,8,02,0A,02,00,E0,E0,A0,8A,
-1620546108698095,00000734,false,Rx,0,8,03,E8,03,E8,64,64,35,36,
-1620546108690159,00000288,false,Rx,0,8,27,10,FF,FF,00,00,05,04,
-1620546108689903,00000565,false,Rx,0,8,3A,00,00,00,00,A2,00,00,
-1620546108688623,0000028B,false,Rx,0,8,27,10,FF,FF,00,00,05,04,
-1620546108688367,0000056B,false,Rx,0,8,3A,00,00,00,00,A2,00,00,
-1620546108680132,00000288,false,Rx,0,8,27,10,FF,FF,00,00,05,04,
-1620546108679834,0000056C,false,Rx,0,8,28,80,03,20,00,00,28,8A,
-1620546108679407,0000075A,false,Rx,0,8,03,E8,03,E8,64,64,35,36,
-1620546108678596,0000028B,false,Rx,0,8,27,10,FF,FF,00,00,05,04,
-1620546108678340,0000056F,false,Rx,0,8,28,80,03,20,00,00,28,8A,
-1620546108678042,00000734,false,Rx,0,8,03,E8,03,E8,64,64,35,36,
-1620546108670149,00000288,false,Rx,0,8,27,10,FF,FF,00,00,05,04,
-1620546108668613,0000028B,false,Rx,0,8,27,10,FF,FF,00,00,05,04,
-1620546108660165,00000288,false,Rx,0,8,27,10,FF,FF,00,00,05,04,
-1620546108659909,00000298,false,Rx,0,8,FF,36,37,69,35,00,00,FF,
-1620546108659653,0000075A,false,Rx,0,8,03,E8,03,E8,64,64,35,36,
-1620546108658586,0000028B,false,Rx,0,8,27,10,FF,FF,00,00,05,04,
-1620546108658330,0000029B,false,Rx,0,8,FF,36,37,69,35,0A,00,FF,
-1620546108658031,00000734,false,Rx,0,8,03,E8,03,E8,64,64,35,36,
-1620546108650138,00000288,false,Rx,0,8,27,10,FF,FF,00,00,05,04,
-1620546108649882,00000564,false,Rx,0,8,02,0A,02,00,E0,E0,A0,8A,
-1620546108648602,0000028B,false,Rx,0,8,27,10,FF,FF,00,00,05,04,
-1620546108648346,0000056A,false,Rx,0,8,02,0A,02,00,E0,E0,A0,8A,
-1620546108640154,00000288,false,Rx,0,8,27,10,FF,FF,00,00,05,04,
-1620546108639898,00000565,false,Rx,0,8,3A,00,00,00,00,A2,00,00,
-1620546108639642,0000075A,false,Rx,0,8,03,E8,03,E8,64,64,35,36,
-1620546108638618,0000028B,false,Rx,0,8,27,10,FF,FF,00,00,05,04,
-1620546108638362,0000056B,false,Rx,0,8,3A,00,00,00,00,A2,00,00,
-1620546108638106,00000734,false,Rx,0,8,03,E8,03,E8,64,64,35,36,
-1620546108630128,00000288,false,Rx,0,8,27,10,FF,FF,00,00,05,04,
-1620546108629829,0000056C,false,Rx,0,8,28,80,03,20,00,00,28,8A,
-1620546108628592,0000028B,false,Rx,0,8,27,10,FF,FF,00,00,05,04,
-1620546108628336,0000056F,false,Rx,0,8,28,80,03,20,00,00,28,8A,
-1620546108620144,00000288,false,Rx,0,8,27,10,FF,FF,00,00,05,04,
-1620546108619888,0000075A,false,Rx,0,8,03,E8,03,E8,64,64,35,36,
-1620546108619461,0000075B,false,Rx,0,8,FF,00,FF,00,06,5B,A0,35,
-1620546108618651,0000028B,false,Rx,0,8,27,10,FF,FF,00,00,05,04,
-1620546108618395,00000734,false,Rx,0,8,03,E8,03,E8,64,64,35,36,
-1620546108618139,00000735,false,Rx,0,8,FF,00,FF,00,06,69,A0,36,
-1620546108610160,00000288,false,Rx,0,8,27,10,FF,FF,00,00,05,04,
-1620546108608582,0000028B,false,Rx,0,8,27,10,FF,FF,00,00,05,04,
-1620546108600134,00000288,false,Rx,0,8,27,10,FF,FF,00,00,05,04,
-1620546108599878,00000564,false,Rx,0,8,02,0A,02,00,E0,E0,A0,8A,
-1620546108599408,0000075A,false,Rx,0,8,03,E8,03,E8,64,64,35,36,
-1620546108598640,0000028B,false,Rx,0,8,27,10,FF,FF,00,00,05,04,
-1620546108598384,0000056A,false,Rx,0,8,02,0A,02,00,E0,E0,A0,8A,
-1620546108598128,00000734,false,Rx,0,8,03,E8,03,E8,64,64,35,36,
-1620546108590150,00000288,false,Rx,0,8,27,10,FF,FF,00,00,05,04,
-1620546108589894,00000565,false,Rx,0,8,3A,00,00,00,00,A2,00,00,
-1620546108588571,0000028B,false,Rx,0,8,27,10,FF,FF,00,00,05,04,
-1620546108588315,0000056B,false,Rx,0,8,3A,00,00,00,00,A2,00,00,
-1620546108580166,00000288,false,Rx,0,8,27,10,FF,FF,00,00,05,04,
-1620546108579910,0000056C,false,Rx,0,8,28,80,03,20,00,00,28,8A,
-1620546108579654,0000075A,false,Rx,0,8,03,E8,03,E8,64,64,35,36,
-1620546108578630,0000028B,false,Rx,0,8,27,10,FF,FF,00,00,05,04,
-1620546108578374,0000056F,false,Rx,0,8,28,80,03,20,00,00,28,8A,
-1620546108578118,00000734,false,Rx,0,8,03,E8,03,E8,64,64,35,36,
-1620546108570139,00000288,false,Rx,0,8,27,10,FF,FF,00,00,05,04,
-1620546108568604,0000028B,false,Rx,0,8,27,10,FF,FF,00,00,05,04,
-1620546108560156,00000288,false,Rx,0,8,27,10,FF,FF,00,00,05,04,
-1620546108559900,00000298,false,Rx,0,8,FF,36,37,69,35,00,00,FF,
-1620546108559644,0000075A,false,Rx,0,8,03,E8,03,E8,64,64,35,36,
-1620546108558577,0000028B,false,Rx,0,8,27,10,FF,FF,00,00,05,04,
-1620546108558321,0000029B,false,Rx,0,8,FF,36,37,69,35,0A,00,FF,
-1620546108558065,00000734,false,Rx,0,8,03,E8,03,E8,64,64,35,36,
-1620546108550129,00000288,false,Rx,0,8,27,10,FF,FF,00,00,05,04,
-1620546108549830,00000564,false,Rx,0,8,02,0A,02,00,E0,E0,A0,8A,
-1620546108548636,0000028B,false,Rx,0,8,27,10,FF,FF,00,00,05,04,
-1620546108548380,0000056A,false,Rx,0,8,02,0A,02,00,E0,E0,A0,8A,
-1620546108540145,00000288,false,Rx,0,8,27,10,FF,FF,00,00,05,04,
-1620546108539889,00000565,false,Rx,0,8,3A,00,00,00,00,A2,00,00,
-1620546108539463,0000075A,false,Rx,0,8,03,E8,03,E8,64,64,35,36,
-1620546108538609,0000028B,false,Rx,0,8,27,10,FF,FF,00,00,05,04,
-1620546108538311,0000056B,false,Rx,0,8,3A,00,00,00,00,A2,00,00,
-1620546108538055,00000734,false,Rx,0,8,03,E8,03,E8,64,64,35,36,
-1620546108530161,00000288,false,Rx,0,8,27,10,FF,FF,00,00,05,04,
-1620546108529905,0000056C,false,Rx,0,8,28,80,03,20,00,00,28,8A,
-1620546108528625,0000028B,false,Rx,0,8,27,10,FF,FF,00,00,05,04,
-1620546108528369,0000056F,false,Rx,0,8,28,80,03,20,00,00,28,8A,
-1620546108520135,00000288,false,Rx,0,8,27,10,FF,FF,00,00,05,04,
-1620546108519879,0000075A,false,Rx,0,8,03,E8,03,E8,64,64,35,36,
-1620546108519410,0000075B,false,Rx,0,8,FF,00,FF,00,06,5B,A0,35,
-1620546108518599,0000028B,false,Rx,0,8,27,10,FF,FF,00,00,05,04,
-1620546108518300,00000734,false,Rx,0,8,03,E8,03,E8,64,64,35,36,
-1620546108518044,00000735,false,Rx,0,8,FF,00,FF,00,06,69,A0,36,
-1620546108510151,00000288,false,Rx,0,8,27,10,FF,FF,00,00,05,04,
-1620546108508615,0000028B,false,Rx,0,8,27,10,FF,FF,00,00,05,04,
-1620546108500167,00000288,false,Rx,0,8,27,10,FF,FF,00,00,05,04,
-1620546108499911,00000564,false,Rx,0,8,02,0A,02,00,E0,E0,A0,8A,
-1620546108499655,0000075A,false,Rx,0,8,03,E8,03,E8,64,64,35,36,
-1620546108498589,0000028B,false,Rx,0,8,27,10,FF,FF,00,00,05,04,
-1620546108498290,0000056A,false,Rx,0,8,02,0A,02,00,E0,E0,A0,8A,
-1620546108498034,00000734,false,Rx,0,8,03,E8,03,E8,64,64,35,36,
-1620546108490141,00000288,false,Rx,0,8,27,10,FF,FF,00,00,05,04,
-1620546108489842,00000565,false,Rx,0,8,3A,00,00,00,00,A2,00,00,
-1620546108488605,0000028B,false,Rx,0,8,27,10,FF,FF,00,00,05,04,
-1620546108488349,0000056B,false,Rx,0,8,3A,00,00,00,00,A2,00,00,
-1620546108480157,00000288,false,Rx,0,8,27,10,FF,FF,00,00,05,04,
-1620546108479901,0000056C,false,Rx,0,8,28,80,03,20,00,00,28,8A,
-1620546108479645,0000075A,false,Rx,0,8,03,E8,03,E8,64,64,35,36,
-1620546108478621,0000028B,false,Rx,0,8,27,10,FF,FF,00,00,05,04,
-1620546108478365,0000056F,false,Rx,0,8,28,80,03,20,00,00,28,8A,
-1620546108478152,00000734,false,Rx,0,8,03,E8,03,E8,64,64,35,36,
-1620546108470130,00000288,false,Rx,0,8,27,10,FF,FF,00,00,05,04,
-1620546108468594,0000028B,false,Rx,0,8,27,10,FF,FF,00,00,05,04,
-1620546108460147,00000288,false,Rx,0,8,27,10,FF,FF,00,00,05,04,
-1620546108459891,00000298,false,Rx,0,8,FF,36,37,69,35,00,00,FF,
-1620546108459464,0000075A,false,Rx,0,8,03,E8,03,E8,64,64,35,36,
-1620546108458653,0000028B,false,Rx,0,8,27,10,FF,FF,00,00,05,04,
-1620546108458397,0000029B,false,Rx,0,8,FF,36,37,69,35,0A,00,FF,
-1620546108458099,00000734,false,Rx,0,8,03,E8,03,E8,64,64,35,36,
-1620546108450163,00000288,false,Rx,0,8,27,10,FF,FF,00,00,05,04,
-1620546108449907,00000564,false,Rx,0,8,02,0A,02,00,E0,E0,A0,8A,
-1620546108448584,0000028B,false,Rx,0,8,27,10,FF,FF,00,00,05,04,
-1620546108448328,0000056A,false,Rx,0,8,02,0A,02,00,E0,E0,A0,8A,
-1620546108440136,00000288,false,Rx,0,8,27,10,FF,FF,00,00,05,04,
-1620546108439880,00000565,false,Rx,0,8,3A,00,00,00,00,A2,00,00,
-1620546108439411,0000075A,false,Rx,0,8,03,E8,03,E8,64,64,35,36,
-1620546108438600,0000028B,false,Rx,0,8,27,10,FF,FF,00,00,05,04,
-1620546108438344,0000056B,false,Rx,0,8,3A,00,00,00,00,A2,00,00,
-1620546108438088,00000734,false,Rx,0,8,03,E8,03,E8,64,64,35,36,
-1620546108430152,00000288,false,Rx,0,8,27,10,FF,FF,00,00,05,04,
-1620546108429896,0000056C,false,Rx,0,8,28,80,03,20,00,00,28,8A,
-1620546108428659,0000028B,false,Rx,0,8,27,10,FF,FF,00,00,05,04,
-1620546108428403,0000056F,false,Rx,0,8,28,80,03,20,00,00,28,8A,
-1620546108420169,00000288,false,Rx,0,8,27,10,FF,FF,00,00,05,04,
-1620546108419913,0000075A,false,Rx,0,8,03,E8,03,E8,64,64,35,36,
-1620546108419657,0000075B,false,Rx,0,8,FF,00,FF,00,06,5B,A0,35,
-1620546108418590,0000028B,false,Rx,0,8,27,10,FF,FF,00,00,05,04,
-1620546108418334,00000734,false,Rx,0,8,03,E8,03,E8,64,64,35,36,
-1620546108418078,00000735,false,Rx,0,8,FF,00,FF,00,06,69,A0,36,
-1620546108410142,00000288,false,Rx,0,8,27,10,FF,FF,00,00,05,04,
-1620546108408649,0000028B,false,Rx,0,8,27,10,FF,FF,00,00,05,04,
-1620546108400158,00000288,false,Rx,0,8,27,10,FF,FF,00,00,05,04,
-1620546108399902,00000564,false,Rx,0,8,02,0A,02,00,E0,E0,A0,8A,
-1620546108399646,0000075A,false,Rx,0,8,03,E8,03,E8,64,64,35,36,
-1620546108398580,0000028B,false,Rx,0,8,27,10,FF,FF,00,00,05,04,
-1620546108398324,0000056A,false,Rx,0,8,02,0A,02,00,E0,E0,A0,8A,
-1620546108398068,00000734,false,Rx,0,8,03,E8,03,E8,64,64,35,36,
-1620546108390132,00000288,false,Rx,0,8,27,10,FF,FF,00,00,05,04,
-1620546108389833,00000565,false,Rx,0,8,3A,00,00,00,00,A2,00,00,
-1620546108388638,0000028B,false,Rx,0,8,27,10,FF,FF,00,00,05,04,
-1620546108388382,0000056B,false,Rx,0,8,3A,00,00,00,00,A2,00,00,
-1620546108380148,00000288,false,Rx,0,8,27,10,FF,FF,00,00,05,04,
-1620546108379892,0000056C,false,Rx,0,8,28,80,03,20,00,00,28,8A,
-1620546108379465,0000075A,false,Rx,0,8,03,E8,03,E8,64,64,35,36,
-1620546108378612,0000028B,false,Rx,0,8,27,10,FF,FF,00,00,05,04,
-1620546108378313,0000056F,false,Rx,0,8,28,80,03,20,00,00,28,8A,
-1620546108378057,00000734,false,Rx,0,8,03,E8,03,E8,64,64,35,36,
-1620546108370164,00000288,false,Rx,0,8,27,10,FF,FF,00,00,05,04,
-1620546108368628,0000028B,false,Rx,0,8,27,10,FF,FF,00,00,05,04,
-1620546108360137,00000288,false,Rx,0,8,27,10,FF,FF,00,00,05,04,
-1620546108359881,00000298,false,Rx,0,8,FF,36,37,69,35,00,00,FF,
-1620546108359412,0000075A,false,Rx,0,8,03,E8,03,E8,64,64,35,36,
-1620546108358644,0000028B,false,Rx,0,8,27,10,FF,FF,00,00,05,04,
-1620546108358388,0000029B,false,Rx,0,8,FF,36,37,69,35,0A,00,FF,
-1620546108358132,00000734,false,Rx,0,8,03,E8,03,E8,64,64,35,36,
-1620546108350196,00000288,false,Rx,0,8,27,10,FF,FF,00,00,05,04,
-1620546108349940,00000564,false,Rx,0,8,02,0A,02,80,E8,E0,AA,8A,
-1620546108349642,00000665,false,Rx,0,8,02,00,00,00,00,00,00,00,
-1620546108348618,0000028B,false,Rx,0,8,27,10,FF,FF,00,00,05,04,
-1620546108348362,0000056A,false,Rx,0,8,02,0A,02,80,E8,E0,AA,8A,
-1620546108348063,00000669,false,Rx,0,8,02,00,00,00,00,00,00,00,
-1620546108340170,00000288,false,Rx,0,8,27,10,FF,FF,00,00,05,04,
-1620546108339914,00000565,false,Rx,0,8,3A,02,00,00,80,AA,00,00,
-1620546108339700,0000075A,false,Rx,0,8,03,E8,03,E8,64,64,35,36,
-1620546108338634,0000028B,false,Rx,0,8,27,10,FF,FF,00,00,05,04,
-1620546108338378,0000056B,false,Rx,0,8,3A,02,00,00,80,AA,00,00,
-1620546108338122,00000734,false,Rx,0,8,03,E8,03,E8,64,64,35,36,
-1620546108330143,00000288,false,Rx,0,8,27,10,FF,FF,00,00,05,04,
-1620546108329887,0000056C,false,Rx,0,8,2A,88,03,20,00,00,28,8A,
-1620546108329461,00000666,false,Rx,0,8,01,3E,3A,B5,A7,00,00,00,
-1620546108328607,0000028B,false,Rx,0,8,27,10,FF,FF,00,00,05,04,
-1620546108328351,0000056F,false,Rx,0,8,2A,88,2B,20,00,00,28,8A,
-1620546108328053,0000066A,false,Rx,0,8,01,55,EC,48,D8,00,00,00,
-1620546108320202,00000288,false,Rx,0,8,27,10,FF,FF,00,00,05,04,
-1620546108319946,0000075A,false,Rx,0,8,03,E8,03,E8,64,64,35,36,
-1620546108319647,0000075B,false,Rx,0,8,FF,00,FF,00,06,5B,A0,35,
-1620546108318666,0000028B,false,Rx,0,8,27,10,FF,FF,00,00,05,04,
-1620546108318410,00000734,false,Rx,0,8,03,E8,03,E8,64,64,35,36,
-1620546108318111,00000735,false,Rx,0,8,FF,00,FF,00,06,69,A0,36,
-1620546108310133,00000288,false,Rx,0,8,27,10,FF,FF,00,00,05,04,
-1620546108308597,0000028B,false,Rx,0,8,27,10,FF,FF,00,00,05,04,
-1620546108300149,00000288,false,Rx,0,8,27,10,FF,FF,00,00,05,04,
-1620546108299893,00000564,false,Rx,0,8,02,0A,02,80,E8,E0,AA,8A,
-1620546108299466,0000075A,false,Rx,0,8,03,E8,03,E8,64,64,35,36,
-1620546108298613,0000028B,false,Rx,0,8,27,10,FF,FF,00,00,05,04,
-1620546108298357,0000056A,false,Rx,0,8,02,0A,02,80,E8,E0,AA,8A,
-1620546108298101,00000734,false,Rx,0,8,03,E8,03,E8,64,64,35,36,
-1620546108290208,00000288,false,Rx,0,8,27,10,FF,FF,00,00,05,04,
-1620546108289909,00000565,false,Rx,0,8,3A,02,00,00,80,AA,00,00,
-1620546108288629,0000028B,false,Rx,0,8,27,10,FF,FF,00,00,05,04,
-1620546108288373,0000056B,false,Rx,0,8,3A,02,00,00,80,AA,00,00,
-1620546108280139,00000288,false,Rx,0,8,27,10,FF,FF,00,00,05,04,
-1620546108279883,0000056C,false,Rx,0,8,2A,88,03,20,00,00,28,8A,
-1620546108279413,0000075A,false,Rx,0,8,03,E8,03,E8,64,64,35,36,
-1620546108278603,0000028B,false,Rx,0,8,27,10,FF,FF,00,00,05,04,
-1620546108278347,0000056F,false,Rx,0,8,2A,88,2B,20,00,00,28,8A,
-1620546108278091,00000734,false,Rx,0,8,03,E8,03,E8,64,64,35,36,
-1620546108270198,00000288,false,Rx,0,8,27,10,FF,FF,00,00,05,04,
-1620546108268662,0000028B,false,Rx,0,8,27,10,FF,FF,00,00,05,04,
-1620546108260171,00000288,false,Rx,0,8,27,10,FF,FF,00,00,05,04,
-1620546108259958,00000298,false,Rx,0,8,FF,36,37,69,35,00,00,FF,
-1620546108259702,0000075A,false,Rx,0,8,03,E8,03,E8,64,64,35,36,
-1620546108258592,0000028B,false,Rx,0,8,27,10,FF,FF,00,00,05,04,
-1620546108258336,0000029B,false,Rx,0,8,FF,36,37,69,35,0A,00,FF,
-1620546108258080,00000734,false,Rx,0,8,03,E8,03,E8,64,64,35,36,
-1620546108250144,00000288,false,Rx,0,8,27,10,FF,FF,00,00,05,04,
-1620546108249889,00000564,false,Rx,0,8,02,0A,02,80,E8,E0,AA,8A,
-1620546108248651,0000028B,false,Rx,0,8,27,10,FF,FF,00,00,05,04,
-1620546108248395,0000056A,false,Rx,0,8,02,0A,02,80,E8,E0,AA,8A,
-1620546108240203,00000288,false,Rx,0,8,27,10,FF,FF,00,00,05,04,
-1620546108239947,00000565,false,Rx,0,8,3A,02,00,00,80,AA,00,00,
-1620546108239691,0000075A,false,Rx,0,8,03,E8,03,E8,64,64,35,36,
-1620546108238582,0000028B,false,Rx,0,8,27,10,FF,FF,00,00,05,04,
-1620546108238326,0000056B,false,Rx,0,8,3A,02,00,00,80,AA,00,00,
-1620546108238027,00000734,false,Rx,0,8,03,E8,03,E8,64,64,35,36,
-1620546108230134,00000288,false,Rx,0,8,27,10,FF,FF,00,00,05,04,
-1620546108229878,0000056C,false,Rx,0,8,2A,88,03,20,00,00,28,8A,
-1620546108228641,0000028B,false,Rx,0,8,27,10,FF,FF,00,00,05,04,
-1620546108228385,0000056F,false,Rx,0,8,2A,88,2B,20,00,00,28,8A,
-1620546108220150,00000288,false,Rx,0,8,27,10,FF,FF,00,00,05,04,
-1620546108219937,0000075A,false,Rx,0,8,03,E8,03,E8,64,64,35,36,
-1620546108219468,0000075B,false,Rx,0,8,FF,00,FF,00,06,5B,A0,35,
-1620546108218657,0000028B,false,Rx,0,8,27,10,FF,FF,00,00,05,04,
-1620546108218401,00000734,false,Rx,0,8,03,E8,03,E8,64,64,35,36,
-1620546108218145,00000735,false,Rx,0,8,FF,00,FF,00,06,69,A0,36,
-1620546108210209,00000288,false,Rx,0,8,27,10,FF,FF,00,00,05,04,
-1620546108208588,0000028B,false,Rx,0,8,27,10,FF,FF,00,00,05,04,
-1620546108200140,00000288,false,Rx,0,8,27,10,FF,FF,00,00,05,04,
-1620546108199884,00000564,false,Rx,0,8,02,0A,02,80,E8,E0,AA,8A,
-1620546108199457,0000075A,false,Rx,0,8,03,E8,03,E8,64,64,35,36,
-1620546108198647,0000028B,false,Rx,0,8,27,10,FF,FF,00,00,05,04,
-1620546108198391,0000056A,false,Rx,0,8,02,0A,02,80,E8,E0,AA,8A,
-1620546108198135,00000734,false,Rx,0,8,03,E8,03,E8,64,64,35,36,
-1620546108190199,00000288,false,Rx,0,8,27,10,FF,FF,00,00,05,04,
-1620546108189943,00000565,false,Rx,0,8,3A,02,00,00,80,AA,00,00,
-1620546108188620,0000028B,false,Rx,0,8,27,10,FF,FF,00,00,05,04,
-1620546108188321,0000056B,false,Rx,0,8,3A,02,00,00,80,AA,00,00,
-1620546108180172,00000288,false,Rx,0,8,27,10,FF,FF,00,00,05,04,
-1620546108179916,0000056C,false,Rx,0,8,2A,88,03,20,00,00,28,8A,
-1620546108179703,0000075A,false,Rx,0,8,03,E8,03,E8,64,64,35,36,
-1620546108178636,0000028B,false,Rx,0,8,27,10,FF,FF,00,00,05,04,
-1620546108178380,0000056F,false,Rx,0,8,2A,88,2B,20,00,00,28,8A,
-1620546108178124,00000734,false,Rx,0,8,03,E8,03,E8,64,64,35,36,
-1620546108170146,00000288,false,Rx,0,8,27,10,FF,FF,00,00,05,04,
-1620546108168610,0000028B,false,Rx,0,8,27,10,FF,FF,00,00,05,04,
-1620546108160205,00000288,false,Rx,0,8,27,10,FF,FF,00,00,05,04,
-1620546108159949,00000298,false,Rx,0,8,FF,36,37,69,35,00,00,FF,
-1620546108159693,0000075A,false,Rx,0,8,03,E8,03,E8,64,64,35,36,
-1620546108158626,0000028B,false,Rx,0,8,27,10,FF,FF,00,00,05,04,
-1620546108158370,0000029B,false,Rx,0,8,FF,36,37,69,35,0A,00,FF,
-1620546108158114,00000734,false,Rx,0,8,03,E8,03,E8,64,64,35,36,
-1620546108150135,00000288,false,Rx,0,8,27,10,FF,FF,00,00,05,04,
-1620546108149879,00000564,false,Rx,0,8,02,0A,02,80,E8,E0,AA,8A,
-1620546108148642,0000028B,false,Rx,0,8,27,10,FF,FF,00,00,05,04,
-1620546108148386,0000056A,false,Rx,0,8,02,0A,02,80,E8,E0,AA,8A,
-1620546108140194,00000288,false,Rx,0,8,27,10,FF,FF,00,00,05,04,
-1620546108139896,00000565,false,Rx,0,8,3A,02,00,00,80,AA,00,00,
-1620546108139640,0000075A,false,Rx,0,8,03,E8,03,E8,64,64,35,36,
-1620546108138616,0000028B,false,Rx,0,8,27,10,FF,FF,00,00,05,04,
-1620546108138360,0000056B,false,Rx,0,8,3A,02,00,00,80,AA,00,00,
-1620546108138104,00000734,false,Rx,0,8,03,E8,03,E8,64,64,35,36,
-1620546108130210,00000288,false,Rx,0,8,27,10,FF,FF,00,00,05,04,
-1620546108129954,0000056C,false,Rx,0,8,2A,88,03,20,00,00,28,8A,
-1620546108128632,0000028B,false,Rx,0,8,27,10,FF,FF,00,00,05,04,
-1620546108128376,0000056F,false,Rx,0,8,2A,88,2B,20,00,00,28,8A,
-1620546108120141,00000288,false,Rx,0,8,27,10,FF,FF,00,00,05,04,
-1620546108119885,0000075A,false,Rx,0,8,03,E8,03,E8,64,64,35,36,
-1620546108119459,0000075B,false,Rx,0,8,FF,00,FF,00,06,5B,A0,35,
-1620546108118605,0000028B,false,Rx,0,8,27,10,FF,FF,00,00,05,04,
-1620546108118349,00000734,false,Rx,0,8,03,E8,03,E8,64,64,35,36,
-1620546108118051,00000735,false,Rx,0,8,FF,00,FF,00,06,69,A0,36,
-1620546108110200,00000288,false,Rx,0,8,27,10,FF,FF,00,00,05,04,
-1620546108108664,0000028B,false,Rx,0,8,27,10,FF,FF,00,00,05,04,
-1620546108100131,00000288,false,Rx,0,8,27,10,FF,FF,00,00,05,04,
-1620546108099875,00000564,false,Rx,0,8,02,0A,02,80,E8,E0,AA,8A,
-1620546108099406,0000075A,false,Rx,0,8,03,E8,03,E8,64,64,35,36,
-1620546108098595,0000028B,false,Rx,0,8,27,10,FF,FF,00,00,05,04,
-1620546108098339,0000056A,false,Rx,0,8,02,0A,02,80,E8,E0,AA,8A,
-1620546108098040,00000734,false,Rx,0,8,03,E8,03,E8,64,64,35,36,
-1620546108090147,00000288,false,Rx,0,8,27,10,FF,FF,00,00,05,04,
-1620546108089891,00000565,false,Rx,0,8,3A,02,00,00,80,AA,00,00,
-1620546108088611,0000028B,false,Rx,0,8,27,10,FF,FF,00,00,05,04,
-1620546108088355,0000056B,false,Rx,0,8,3A,02,00,00,80,AA,00,00,
-1620546108080206,00000288,false,Rx,0,8,27,10,FF,FF,00,00,05,04,
-1620546108079950,0000056C,false,Rx,0,8,2A,88,03,20,00,00,28,8A,
-1620546108079694,0000075A,false,Rx,0,8,03,E8,03,E8,64,64,35,36,
-1620546108078670,0000028B,false,Rx,0,8,27,10,FF,FF,00,00,05,04,
-1620546108078414,0000056F,false,Rx,0,8,2A,88,2B,20,00,00,28,8A,
-1620546108078158,00000734,false,Rx,0,8,03,E8,03,E8,64,64,35,36,
-1620546108070137,00000288,false,Rx,0,8,27,10,FF,FF,00,00,05,04,
-1620546108068601,0000028B,false,Rx,0,8,27,10,FF,FF,00,00,05,04,
-1620546108060195,00000288,false,Rx,0,8,27,10,FF,FF,00,00,05,04,
-1620546108059939,00000298,false,Rx,0,8,FF,36,37,69,35,00,00,FF,
-1620546108059641,0000075A,false,Rx,0,8,03,E8,03,E8,64,64,35,36,
-1620546108058659,0000028B,false,Rx,0,8,27,10,FF,FF,00,00,05,04,
-1620546108058403,0000029B,false,Rx,0,8,FF,36,37,69,35,0A,00,FF,
-1620546108058147,00000734,false,Rx,0,8,03,E8,03,E8,64,64,35,36,
-1620546108050212,00000288,false,Rx,0,8,27,10,FF,FF,00,00,05,04,
-1620546108049956,00000564,false,Rx,0,8,02,0A,02,80,E8,E0,AA,8A,
-1620546108048590,0000028B,false,Rx,0,8,27,10,FF,FF,00,00,05,04,
-1620546108048334,0000056A,false,Rx,0,8,02,0A,02,80,E8,E0,AA,8A,
-1620546108040142,00000288,false,Rx,0,8,27,10,FF,FF,00,00,05,04,
-1620546108039886,00000565,false,Rx,0,8,3A,02,00,00,80,AA,00,00,
-1620546108039460,0000075A,false,Rx,0,8,03,E8,03,E8,64,64,35,36,
-1620546108038649,0000028B,false,Rx,0,8,27,10,FF,FF,00,00,05,04,
-1620546108038393,0000056B,false,Rx,0,8,3A,02,00,00,80,AA,00,00,
-1620546108038137,00000734,false,Rx,0,8,03,E8,03,E8,64,64,35,36,
-1620546108030201,00000288,false,Rx,0,8,27,10,FF,FF,00,00,05,04,
-1620546108029945,0000056C,false,Rx,0,8,2A,88,03,20,00,00,28,8A,
-1620546108028623,0000028B,false,Rx,0,8,27,10,FF,FF,00,00,05,04,
-1620546108028324,0000056F,false,Rx,0,8,2A,88,2B,20,00,00,28,8A,
-1620546108020132,00000288,false,Rx,0,8,27,10,FF,FF,00,00,05,04,
-1620546108019876,0000075A,false,Rx,0,8,03,E8,03,E8,64,64,35,36,
-1620546108019407,0000075B,false,Rx,0,8,FF,00,FF,00,06,5B,A0,35,
-1620546108018639,0000028B,false,Rx,0,8,27,10,FF,FF,00,00,05,04,
-1620546108018383,00000734,false,Rx,0,8,03,E8,03,E8,64,64,35,36,
-1620546108018084,00000735,false,Rx,0,8,FF,00,FF,00,06,69,A0,36,
-1620546108010148,00000288,false,Rx,0,8,27,10,FF,FF,00,00,05,04,
-1620546108008655,0000028B,false,Rx,0,8,27,10,FF,FF,00,00,05,04,
-1620546108000207,00000288,false,Rx,0,8,27,10,FF,FF,00,00,05,04,
-1620546107999951,00000564,false,Rx,0,8,02,0A,02,80,E8,E0,AA,8A,
-1620546107999695,0000075A,false,Rx,0,8,03,E8,03,E8,64,64,35,36,
-1620546107998628,0000028B,false,Rx,0,8,27,10,FF,FF,00,00,05,04,
-1620546107998372,0000056A,false,Rx,0,8,02,0A,02,80,E8,E0,AA,8A,
-1620546107998074,00000734,false,Rx,0,8,03,E8,03,E8,64,64,35,36,
-1620546107990138,00000288,false,Rx,0,8,27,10,FF,FF,00,00,05,04,
-1620546107989882,00000565,false,Rx,0,8,3A,02,00,00,80,AA,00,00,
-1620546107988645,0000028B,false,Rx,0,8,27,10,FF,FF,00,00,05,04,
-1620546107988389,0000056B,false,Rx,0,8,3A,02,00,00,80,AA,00,00,
-1620546107980197,00000288,false,Rx,0,8,27,10,FF,FF,00,00,05,04,
-1620546107979941,0000056C,false,Rx,0,8,2A,88,03,20,00,00,28,8A,
-1620546107979642,0000075A,false,Rx,0,8,03,E8,03,E8,64,64,35,36,
-1620546107978618,0000028B,false,Rx,0,8,27,10,FF,FF,00,00,05,04,
-1620546107978362,0000056F,false,Rx,0,8,2A,88,2B,20,00,00,28,8A,
-1620546107978063,00000734,false,Rx,0,8,03,E8,03,E8,64,64,35,36,
-1620546107970213,00000288,false,Rx,0,8,27,10,FF,FF,00,00,05,04,
-1620546107968634,0000028B,false,Rx,0,8,27,10,FF,FF,00,00,05,04,
-1620546107960144,00000288,false,Rx,0,8,27,10,FF,FF,00,00,05,04,
-1620546107959888,00000298,false,Rx,0,8,FF,36,37,69,35,00,00,FF,
-1620546107959461,0000075A,false,Rx,0,8,03,E8,03,E8,64,64,35,36,
-1620546107958608,0000028B,false,Rx,0,8,27,10,FF,FF,00,00,05,04,
-1620546107958352,0000029B,false,Rx,0,8,FF,36,37,69,35,0A,00,FF,
-1620546107958053,00000734,false,Rx,0,8,03,E8,03,E8,64,64,35,36,
-1620546107950203,00000288,false,Rx,0,8,27,10,FF,FF,00,00,05,04,
-1620546107949947,00000564,false,Rx,0,8,02,0A,02,80,E8,E0,AA,8A,
-1620546107948624,0000028B,false,Rx,0,8,27,10,FF,FF,00,00,05,04,
-1620546107948368,0000056A,false,Rx,0,8,02,0A,02,80,E8,E0,AA,8A,
-1620546107940133,00000288,false,Rx,0,8,27,10,FF,FF,00,00,05,04,
-1620546107939877,00000565,false,Rx,0,8,3A,02,00,00,80,AA,00,00,
-1620546107939408,0000075A,false,Rx,0,8,03,E8,03,E8,64,64,35,36,
-1620546107938640,0000028B,false,Rx,0,8,27,10,FF,FF,00,00,05,04,
-1620546107938384,0000056B,false,Rx,0,8,3A,02,00,00,80,AA,00,00,
-1620546107938171,00000734,false,Rx,0,8,03,E8,03,E8,64,64,35,36,
-1620546107930149,00000288,false,Rx,0,8,27,10,FF,FF,00,00,05,04,
-1620546107929894,0000056C,false,Rx,0,8,2A,88,03,20,00,00,28,8A,
-1620546107928614,0000028B,false,Rx,0,8,27,10,FF,FF,00,00,05,04,
-1620546107928358,0000056F,false,Rx,0,8,2A,88,2B,20,00,00,28,8A,
-1620546107920208,00000288,false,Rx,0,8,27,10,FF,FF,00,00,05,04,
-1620546107919952,0000075A,false,Rx,0,8,03,E8,03,E8,64,64,35,36,
-1620546107919696,0000075B,false,Rx,0,8,FF,00,FF,00,06,5B,A0,35,
-1620546107918672,0000028B,false,Rx,0,8,27,10,FF,FF,00,00,05,04,
-1620546107918416,00000734,false,Rx,0,8,03,E8,03,E8,64,64,35,36,
-1620546107918160,00000735,false,Rx,0,8,FF,00,FF,00,06,69,A0,36,
-1620546107910139,00000288,false,Rx,0,8,27,10,FF,FF,00,00,05,04,
-1620546107908603,0000028B,false,Rx,0,8,27,10,FF,FF,00,00,05,04,
-1620546107900198,00000288,false,Rx,0,8,27,10,FF,FF,00,00,05,04,
-1620546107899942,00000564,false,Rx,0,8,02,0A,02,80,E8,E0,AA,8A,
-1620546107899643,0000075A,false,Rx,0,8,03,E8,03,E8,64,64,35,36,
-1620546107898662,0000028B,false,Rx,0,8,27,10,FF,FF,00,00,05,04,
-1620546107898406,0000056A,false,Rx,0,8,02,0A,02,80,E8,E0,AA,8A,
-1620546107898150,00000734,false,Rx,0,8,03,E8,03,E8,64,64,35,36,
-1620546107890214,00000288,false,Rx,0,8,27,10,FF,FF,00,00,05,04,
-1620546107889958,00000565,false,Rx,0,8,3A,02,00,00,80,AA,00,00,
-1620546107888593,0000028B,false,Rx,0,8,27,10,FF,FF,00,00,05,04,
-1620546107888337,0000056B,false,Rx,0,8,3A,02,00,00,80,AA,00,00,
-1620546107880145,00000288,false,Rx,0,8,27,10,FF,FF,00,00,05,04,
-1620546107879889,0000056C,false,Rx,0,8,2A,88,03,20,00,00,28,8A,
-1620546107879462,0000075A,false,Rx,0,8,03,E8,03,E8,64,64,35,36,
-1620546107878652,0000028B,false,Rx,0,8,27,10,FF,FF,00,00,05,04,
-1620546107878396,0000056F,false,Rx,0,8,2A,88,2B,20,00,00,28,8A,
-1620546107878097,00000734,false,Rx,0,8,03,E8,03,E8,64,64,35,36,
-1620546107870204,00000288,false,Rx,0,8,27,10,FF,FF,00,00,05,04,
-1620546107868668,0000028B,false,Rx,0,8,27,10,FF,FF,00,00,05,04,
-1620546107860135,00000288,false,Rx,0,8,27,10,FF,FF,00,00,05,04,
-1620546107859879,00000298,false,Rx,0,8,FF,36,37,69,35,00,00,FF,
-1620546107859409,0000075A,false,Rx,0,8,03,E8,03,E8,64,64,35,36,
-1620546107858599,0000028B,false,Rx,0,8,27,10,FF,FF,00,00,05,04,
-1620546107858385,0000029B,false,Rx,0,8,FF,36,37,69,35,0A,00,FF,
-1620546107858087,00000734,false,Rx,0,8,03,E8,03,E8,64,64,35,36,
-1620546107850193,00000288,false,Rx,0,8,27,10,FF,FF,00,00,05,04,
-1620546107849937,00000564,false,Rx,0,8,02,0A,02,80,E8,E0,AA,8A,
-1620546107849468,00000665,false,Rx,0,8,00,39,34,31,30,41,31,32,
-1620546107848657,0000028B,false,Rx,0,8,27,10,FF,FF,00,00,05,04,
-1620546107848401,0000056A,false,Rx,0,8,02,0A,02,80,E8,E0,AA,8A,
-1620546107848145,00000669,false,Rx,0,8,00,39,34,31,30,41,31,32,
-1620546107840210,00000288,false,Rx,0,8,27,10,FF,FF,00,00,05,04,
-1620546107839954,00000565,false,Rx,0,8,3A,02,00,00,80,AA,00,00,
-1620546107839698,0000075A,false,Rx,0,8,03,E8,03,E8,64,64,35,36,
-1620546107838631,0000028B,false,Rx,0,8,27,10,FF,FF,00,00,05,04,
-1620546107838332,0000056B,false,Rx,0,8,3A,02,00,00,80,AA,00,00,
-1620546107838076,00000734,false,Rx,0,8,03,E8,03,E8,64,64,35,36,
-1620546107830140,00000288,false,Rx,0,8,27,10,FF,FF,00,00,05,04,
-1620546107829884,0000056C,false,Rx,0,8,2A,88,03,20,00,00,28,8A,
-1620546107829415,00000666,false,Rx,0,8,01,3E,3A,B5,A7,00,00,00,
-1620546107828647,0000028B,false,Rx,0,8,27,10,FF,FF,00,00,05,04,
-1620546107828391,0000056F,false,Rx,0,8,2A,88,2B,20,00,00,28,8A,
-1620546107828135,0000066A,false,Rx,0,8,01,55,EC,48,D8,00,00,00,
-1620546107820199,00000288,false,Rx,0,8,27,10,FF,FF,00,00,05,04,
-1620546107819943,0000075A,false,Rx,0,8,03,E8,03,E8,64,64,35,36,
-1620546107819645,0000075B,false,Rx,0,8,FF,00,FF,00,06,5B,A0,35,
-1620546107818621,0000028B,false,Rx,0,8,27,10,FF,FF,00,00,05,04,
-1620546107818322,00000734,false,Rx,0,8,03,E8,03,E8,64,64,35,36,
-1620546107818066,00000735,false,Rx,0,8,FF,00,FF,00,06,69,A0,36,
-1620546107810315,00000288,false,Rx,0,8,27,10,FF,FF,00,00,05,04,
-1620546107808737,0000028B,false,Rx,0,8,27,10,FF,FF,00,00,05,04,
-1620546107800246,00000288,false,Rx,0,8,27,10,FF,FF,00,00,05,04,
-1620546107799990,00000564,false,Rx,0,8,02,0A,02,80,E8,E0,AA,8A,
-1620546107799564,0000075A,false,Rx,0,8,03,E8,03,E8,64,64,35,36,
-1620546107798753,0000028B,false,Rx,0,8,27,10,FF,FF,00,00,05,04,
-1620546107798497,0000056A,false,Rx,0,8,02,0A,02,80,E8,E0,AA,8A,
-1620546107798241,00000734,false,Rx,0,8,03,E8,03,E8,64,64,35,36,
-1620546107790305,00000288,false,Rx,0,8,27,10,FF,FF,00,00,05,04,
-1620546107790049,00000565,false,Rx,0,8,3A,02,00,00,80,AA,00,00,
-1620546107788726,0000028B,false,Rx,0,8,27,10,FF,FF,00,00,05,04,
-1620546107788470,0000056B,false,Rx,0,8,3A,02,00,00,80,AA,00,00,
-1620546107780236,00000288,false,Rx,0,8,27,10,FF,FF,00,00,05,04,
-1620546107779980,0000056C,false,Rx,0,8,2A,88,03,20,00,00,28,8A,
-1620546107779511,0000075A,false,Rx,0,8,03,E8,03,E8,64,64,35,36,
-1620546107778743,0000028B,false,Rx,0,8,27,10,FF,FF,00,00,05,04,
-1620546107778487,0000056F,false,Rx,0,8,2A,88,2B,20,00,00,28,8A,
-1620546107778273,00000734,false,Rx,0,8,03,E8,03,E8,64,64,35,36,
-1620546107770295,00000288,false,Rx,0,8,27,10,FF,FF,00,00,05,04,
-1620546107768716,0000028B,false,Rx,0,8,27,10,FF,FF,00,00,05,04,
-1620546107760311,00000288,false,Rx,0,8,27,10,FF,FF,00,00,05,04,
-1620546107760055,00000298,false,Rx,0,8,FF,36,37,69,35,00,00,FF,
-1620546107759799,0000075A,false,Rx,0,8,03,E8,03,E8,64,64,35,36,
-1620546107758775,0000028B,false,Rx,0,8,27,10,FF,FF,00,00,05,04,
