Time Stamp,ID,Extended,Dir,Bus,LEN,D1,D2,D3,D4,D5,D6,D7,D8
96291,00000285,false,Rx,0,8,00,00,02,00,00,00,00,00,
106291,00000287,false,Rx,0,8,27,10,27,10,27,10,00,00,
111291,00000285,false,Rx,0,8,00,00,02,00,00,00,00,10,
116291,00000287,false,Rx,0,8,27,10,27,10,27,10,00,00,
166291,00000285,false,Rx,0,8,00,00,03,3A,7E,00,08,10,
196291,00000285,false,Rx,0,8,00,00,03,3A,7D,00,08,10,
231291,00000287,false,Rx,0,8,27,10,27,10,27,10,00,00,
241291,00000287,false,Rx,0,8,27,10,27,10,27,10,00,00,
251291,00000287,false,Rx,0,8,27,10,27,10,27,10,00,00,
261291,00000287,false,Rx,0,8,27,10,27,10,27,10,00,00,
271291,00000287,false,Rx,0,8,27,10,27,10,27,10,00,00,
301291,00000285,false,Rx,0,8,00,00,03,3A,7A,00,08,10,
366291,00000287,false,Rx,0,8,27,10,27,10,27,10,00,00,
376291,00000287,false,Rx,0,8,27,10,27,10,27,10,00,00,
386291,00000287,false,Rx,0,8,27,10,27,10,27,10,00,00,
396291,00000287,false,Rx,0,8,27,10,27,10,27,10,00,00,
406291,00000287,false,Rx,0,8,27,10,27,10,27,10,00,00,
416291,00000287,false,Rx,0,8,27,10,27,10,27,10,00,00,
426291,00000287,false,Rx,0,8,27,10,27,10,27,10,00,00,
436291,00000285,false,Rx,0,8,00,00,03,38,7B,00,08,10,
446291,00000285,false,Rx,0,8,00,00,13,38,7B,00,08,10,
501291,00000287,false,Rx,0,8,27,10,27,10,27,10,00,00,
511291,00000287,false,Rx,0,8,27,10,27,10,27,10,00,00,
521291,00000287,false,Rx,0,8,27,10,27,10,27,10,00,00,
531291,00000287,false,Rx,0,8,27,10,27,10,27,10,00,00,
541291,00000287,false,Rx,0,8,27,10,27,10,27,10,00,00,
551291,00000287,false,Rx,0,8,27,10,27,10,27,10,00,00,
561291,00000287,false,Rx,0,8,27,10,27,10,27,10,00,00,
571291,00000285,false,Rx,0,8,00,00,14,38,8C,FE,0C,10,
581291,00000285,false,Rx,0,8,00,00,14,38,8C,FE,0C,10,
591291,00000285,false,Rx,0,8,00,00,14,38,8D,FE,0C,10,
611291,00000285,false,Rx,0,8,00,00,14,38,8D,FE,0C,10,
636291,00000287,false,Rx,0,8,27,FE,27,E4,27,10,03,00,
716291,00000285,false,Rx,0,8,00,00,14,38,8E,FE,0C,10,
726291,00000285,false,Rx,0,8,00,00,14,38,8F,FE,0C,10,
736291,00000285,false,Rx,0,8,00,00,14,38,8F,FE,0C,10,
746291,00000285,false,Rx,0,8,00,00,14,38,8F,FE,0C,10,
756291,00000285,false,Rx,0,8,00,00,14,38,8F,FE,0C,10,
766291,00000285,false,Rx,0,8,00,00,14,38,8F,FE,0C,10,
776291,00000285,false,Rx,0,8,00,00,14,38,8F,FE,0C,10,
781291,00000287,false,Rx,0,8,28,31,28,14,27,10,03,00,
786291,00000285,false,Rx,0,8,00,00,14,38,8F,FE,0C,10,
791291,00000287,false,Rx,0,8,28,4D,28,2E,27,10,03,00,
801291,00000287,false,Rx,0,8,28,69,28,47,27,10,03,00,
811291,00000287,false,Rx,0,8,28,7F,28,5C,27,10,03,00,
821291,00000287,false,Rx,0,8,28,8F,28,6C,27,10,03,00,
851291,00000285,false,Rx,0,8,00,00,14,38,90,FE,0C,10,
861291,00000285,false,Rx,0,8,00,00,14,38,90,FE,0C,10,
871291,00000285,false,Rx,0,8,00,00,14,38,91,FE,0C,10,
881291,00000285,false,Rx,0,8,00,00,14,38,91,FE,0C,10,
891291,00000285,false,Rx,0,8,00,00,14,38,91,FE,0C,10,
901291,00000285,false,Rx,0,8,00,00,14,38,91,FE,0C,10,
911291,00000285,false,Rx,0,8,00,00,14,38,91,FE,0C,10,
916291,00000287,false,Rx,0,8,29,2E,29,06,27,10,03,00,
921291,00000285,false,Rx,0,8,00,00,14,38,91,FE,0C,10,
926291,00000287,false,Rx,0,8,29,3C,29,17,27,10,03,00,
936291,00000287,false,Rx,0,8,29,41,29,23,27,10,03,00,
946291,00000287,false,Rx,0,8,29,45,29,29,27,10,03,00,
956291,00000287,false,Rx,0,8,29,46,29,2C,27,10,03,00,
966291,00000287,false,Rx,0,8,29,45,29,2C,27,10,03,00,
976291,00000287,false,Rx,0,8,29,42,29,2A,27,10,03,00,
986291,00000285,false,Rx,0,8,00,00,14,38,90,FE,0C,10,
996291,00000285,false,Rx,0,8,00,00,14,38,90,FE,0C,10,
1051291,00000287,false,Rx,0,8,29,0B,28,F5,27,10,03,00,
1071291,00000287,false,Rx,0,8,28,F5,28,E0,27,10,03,00,
1111291,00000287,false,Rx,0,8,28,CE,28,B9,27,10,03,00,
1121291,00000285,false,Rx,0,8,00,00,14,39,8F,FE,0C,10,
1131291,00000285,false,Rx,0,8,00,00,14,39,8F,FE,0C,10,
1141291,00000285,false,Rx,0,8,00,00,14,39,8F,FE,0C,10,
1151291,00000285,false,Rx,0,8,00,00,14,39,8F,FE,0C,10,
1161291,00000285,false,Rx,0,8,00,00,14,39,8F,FE,0C,10,
1171291,00000285,false,Rx,0,8,00,00,14,39,8F,FE,0C,10,
1191291,00000286,false,Rx,0,8,00,00,00,3E,00,00,21,00,
1196291,00000287,false,Rx,0,8,28,CE,28,AC,27,10,03,00,
1231291,00000286,false,Rx,0,8,00,00,00,3D,00,00,21,00,
1266291,00000285,false,Rx,0,8,00,00,14,39,8F,FE,0C,10,
1276291,00000285,false,Rx,0,8,00,00,14,39,8F,FE,0C,10,
1286291,00000285,false,Rx,0,8,00,00,14,39,8F,FE,0C,10,
1296291,00000285,false,Rx,0,8,00,00,14,39,8F,FE,0C,10,
1306291,00000285,false,Rx,0,8,00,00,14,39,8F,FE,0C,10,
1326291,00000285,false,Rx,0,8,00,00,14,39,8F,FE,0C,10,
1331291,00000287,false,Rx,0,8,28,E4,28,C3,27,10,03,00,
1346291,00000285,false,Rx,0,8,00,00,14,39,8F,FE,0C,10,
1401291,00000285,false,Rx,0,8,00,00,14,39,8F,FE,0C,10,
1476291,00000287,false,Rx,0,8,28,C8,28,9E,27,10,03,00,
1486291,00000287,false,Rx,0,8,28,C3,28,9B,27,10,03,00,
1506291,00000287,false,Rx,0,8,28,B4,28,90,27,10,03,00,
1546291,00000285,false,Rx,0,8,00,00,14,39,8F,FE,0C,10,
1611291,00000287,false,Rx,0,8,27,FB,27,DF,27,10,03,00,
1621291,00000287,false,Rx,0,8,27,F5,27,D8,27,10,03,00,
1631291,00000287,false,Rx,0,8,27,F2,27,D4,27,10,03,00,
1641291,00000287,false,Rx,0,8,27,EE,27,D0,27,10,03,00,
1651291,00000287,false,Rx,0,8,27,E6,27,C8,27,10,03,00,
1661291,00000287,false,Rx,0,8,27,D0,27,B6,27,10,03,00,
1671291,00000287,false,Rx,0,8,27,B0,27,9B,27,10,03,00,
1681291,00000285,false,Rx,0,8,00,00,14,39,8F,FE,0C,10,
1686291,00000371,false,Rx,0,8,30,00,00,00,00,00,00,00,
1691291,00000285,false,Rx,0,8,00,00,14,39,8F,FE,0C,10,
1706291,00000371,false,Rx,0,8,31,00,00,00,00,00,00,00,
1746291,00000287,false,Rx,0,8,27,24,27,21,27,10,03,00,
1756291,00000287,false,Rx,0,8,27,1E,27,1C,27,10,03,00,
1766291,00000287,false,Rx,0,8,27,19,27,18,27,10,03,00,
1776291,00000287,false,Rx,0,8,27,16,27,15,27,10,03,00,
1786291,00000287,false,Rx,0,8,27,14,27,14,27,10,03,00,
1796291,00000287,false,Rx,0,8,27,13,27,13,27,10,03,00,
1806291,00000287,false,Rx,0,8,27,12,27,12,27,10,03,00,
1816291,00000285,false,Rx,0,8,00,00,14,39,8F,FE,0C,10,
1826291,00000285,false,Rx,0,8,00,00,14,39,8F,FE,0C,10,
1836291,00000285,false,Rx,0,8,00,00,14,39,8F,FE,0C,10,
1846291,00000285,false,Rx,0,8,00,00,14,39,8F,FE,0C,10,
1881291,00000287,false,Rx,0,8,27,10,27,10,27,10,03,00,
1886291,00000286,false,Rx,0,8,00,00,00,3D,00,00,21,00,
1891291,00000287,false,Rx,0,8,27,10,27,10,27,10,03,00,
1951291,00000285,false,Rx,0,8,00,00,14,39,8F,FE,0C,10,
1961291,00000285,false,Rx,0,8,00,00,14,39,8F,FE,0C,10,
1971291,00000285,false,Rx,0,8,00,00,14,39,8F,FE,0C,10,
1981291,00000285,false,Rx,0,8,00,00,14,39,8F,FE,0C,10,
2001291,00000285,false,Rx,0,8,00,00,14,39,8F,FE,0C,10,
2011291,00000285,false,Rx,0,8,00,00,14,39,90,FE,0C,10,
2021291,00000285,false,Rx,0,8,00,00,14,39,8F,FE,0C,10,
2026291,00000287,false,Rx,0,8,27,0E,27,0E,27,10,03,00,
2036291,00000287,false,Rx,0,8,27,0C,27,0D,27,10,03,00,
2041291,00000285,false,Rx,0,8,00,00,14,39,90,FE,0C,10,
2046291,00000287,false,Rx,0,8,27,0B,27,0C,27,10,03,00,
2056291,00000287,false,Rx,0,8,27,0B,27,0B,27,10,03,00,
2066291,00000287,false,Rx,0,8,27,0A,27,0B,27,10,03,00,
2076291,00000287,false,Rx,0,8,27,09,27,0A,27,10,03,00,
2096291,00000285,false,Rx,0,8,00,00,14,39,90,FE,0C,10,
2106291,00000285,false,Rx,0,8,00,00,14,39,90,FE,0C,10,
2116291,00000285,false,Rx,0,8,00,00,14,39,90,FE,0C,10,
2161291,00000287,false,Rx,0,8,27,00,27,02,27,10,03,00,
2171291,00000287,false,Rx,0,8,26,FE,27,01,27,10,03,00,
2181291,00000287,false,Rx,0,8,26,FD,27,00,27,10,03,00,
2191291,00000287,false,Rx,0,8,26,FD,26,FF,27,10,03,00,
2201291,00000287,false,Rx,0,8,26,FC,26,FF,27,10,03,00,
2211291,00000287,false,Rx,0,8,26,FB,26,FE,27,10,03,00,
2221291,00000287,false,Rx,0,8,26,FA,26,FD,27,10,03,00,
2231291,00000285,false,Rx,0,8,00,00,14,39,90,FE,0C,10,
2241291,00000285,false,Rx,0,8,00,00,14,39,90,FE,0C,10,
2251291,00000285,false,Rx,0,8,00,00,14,39,90,FE,0C,10,
2296291,00000287,false,Rx,0,8,26,F3,26,F7,27,10,03,00,
2366291,00000285,false,Rx,0,8,00,00,14,39,91,FE,0C,10,
2376291,00000285,false,Rx,0,8,00,00,14,39,91,FE,0C,10,
2381291,00000371,false,Rx,0,8,30,00,00,00,00,00,00,00,
2386291,00000285,false,Rx,0,8,00,00,14,39,91,FE,0C,10,
2396291,00000285,false,Rx,0,8,00,00,14,39,91,FE,0C,10,
2406291,00000285,false,Rx,0,8,00,00,14,39,91,FE,0C,10,
2416291,00000285,false,Rx,0,8,00,00,14,39,91,FE,0C,10,
2426291,00000285,false,Rx,0,8,00,00,14,39,91,FE,0C,10,
2511291,00000285,false,Rx,0,8,00,00,14,39,91,FE,0C,10,
2581291,00000286,false,Rx,0,8,00,00,00,3D,00,00,21,00,
2601291,00000286,false,Rx,0,8,00,00,00,3D,00,00,21,00,
2646291,00000285,false,Rx,0,8,00,00,14,39,91,FE,0C,10,
2711291,00000287,false,Rx,0,8,26,E4,26,E4,27,10,03,00,
2721291,00000287,false,Rx,0,8,26,E4,26,E4,27,10,03,00,
2741291,00000287,false,Rx,0,8,26,E7,26,E8,27,10,03,00,
2781291,00000285,false,Rx,0,8,00,00,14,39,91,FE,0C,10,
2856291,00000287,false,Rx,0,8,27,83,27,A6,27,10,03,00,
2866291,00000287,false,Rx,0,8,27,87,27,AB,27,10,03,00,
2876291,00000287,false,Rx,0,8,27,8B,27,AD,27,10,03,00,
2886291,00000287,false,Rx,0,8,27,8C,27,AC,27,10,03,00,
2906291,00000287,false,Rx,0,8,27,86,27,9E,27,10,03,00,
2916291,00000285,false,Rx,0,8,00,00,14,39,91,FE,0C,10,
2926291,00000285,false,Rx,0,8,00,00,14,39,91,FE,0C,10,
2991291,00000287,false,Rx,0,8,27,73,27,6F,27,10,03,00,
3001291,00000287,false,Rx,0,8,27,72,27,6B,27,10,03,00,
3056291,00000371,false,Rx,0,8,30,00,00,00,00,00,00,00,
3061291,00000285,false,Rx,0,8,00,00,14,39,91,FE,0C,10,
3071291,00000285,false,Rx,0,8,00,00,14,39,91,FE,0C,10,
3076291,00000371,false,Rx,0,8,30,00,00,00,00,00,00,00,
3081291,00000285,false,Rx,0,8,00,00,14,39,91,FE,0C,10,
3096291,00000371,false,Rx,0,8,30,00,00,00,00,00,00,00,
3101291,00000285,false,Rx,0,8,00,00,14,39,91,FE,0C,10,
3116291,00000371,false,Rx,0,8,30,00,00,00,00,00,00,00,
3136291,00000287,false,Rx,0,8,27,5C,27,54,27,10,03,00,
3146291,00000287,false,Rx,0,8,27,59,27,51,27,10,03,00,
3196291,00000285,false,Rx,0,8,00,00,14,39,91,FE,0C,10,
3206291,00000285,false,Rx,0,8,00,00,14,39,91,FE,0C,10,
3216291,00000285,false,Rx,0,8,00,00,14,39,91,FE,0C,10,
3226291,00000285,false,Rx,0,8,00,00,14,39,91,FE,0C,10,
3236291,00000285,false,Rx,0,8,00,00,14,39,91,FE,0C,10,
3246291,00000285,false,Rx,0,8,00,00,14,39,91,FE,0C,10,
3256291,00000285,false,Rx,0,8,00,00,14,39,91,FE,0C,10,
3271291,00000287,false,Rx,0,8,27,3D,27,38,27,10,03,00,
3276291,00000286,false,Rx,0,8,00,00,00,3D,00,00,21,00,
3281291,00000287,false,Rx,0,8,27,3B,27,37,27,10,03,00,
3291291,00000287,false,Rx,0,8,27,39,27,35,27,10,03,00,
3301291,00000287,false,Rx,0,8,27,37,27,34,27,10,03,00,
3311291,00000287,false,Rx,0,8,27,36,27,33,27,10,03,00,
3321291,00000287,false,Rx,0,8,27,35,27,33,27,10,03,00,
3331291,00000287,false,Rx,0,8,27,35,27,35,27,10,03,00,
3406291,00000287,false,Rx,0,8,27,7D,27,88,27,10,03,00,
3476291,00000285,false,Rx,0,8,00,00,14,39,91,FE,0C,10,
3486291,00000285,false,Rx,0,8,00,00,14,39,91,FE,0C,10,
3496291,00000285,false,Rx,0,8,00,00,14,39,91,FE,0C,10,
3506291,00000285,false,Rx,0,8,00,00,14,39,91,FE,0C,10,
3541291,00000287,false,Rx,0,8,27,7A,27,A1,27,10,03,00,
3551291,00000287,false,Rx,0,8,27,79,27,A1,27,10,03,00,
3581291,00000287,false,Rx,0,8,27,74,27,A1,27,10,03,00,
3611291,00000285,false,Rx,0,8,00,00,14,39,91,FE,0C,10,
3621291,00000285,false,Rx,0,8,00,00,14,39,91,FE,0C,10,
3631291,00000285,false,Rx,0,8,00,00,14,39,91,FE,0C,10,
3641291,00000285,false,Rx,0,8,00,00,14,39,91,FE,0C,10,
3651291,00000285,false,Rx,0,8,00,00,14,39,91,FE,0C,10,
3661291,00000285,false,Rx,0,8,00,00,14,39,91,FE,0C,10,
3681291,00000285,false,Rx,0,8,00,00,14,39,91,FE,0C,10,
3686291,00000287,false,Rx,0,8,27,65,27,9D,27,10,03,00,
3751291,00000371,false,Rx,0,8,30,00,00,00,00,00,00,00,
3756291,00000285,false,Rx,0,8,00,00,14,39,91,FE,0C,10,
3766291,00000285,false,Rx,0,8,00,00,14,39,91,FE,0C,10,
3771291,00000371,false,Rx,0,8,30,00,00,00,00,00,00,00,
3776291,00000285,false,Rx,0,8,00,00,14,39,91,FE,0C,10,
3791291,00000371,false,Rx,0,8,30,00,00,00,00,00,00,00,
3811291,00000371,false,Rx,0,8,30,00,00,00,00,00,00,00,
3816291,00000285,false,Rx,0,8,00,00,14,39,91,FE,0C,10,
3821291,00000287,false,Rx,0,8,27,60,27,96,27,10,03,00,
3856291,00000285,false,Rx,0,8,00,00,14,39,91,FE,0C,10,
3891291,00000285,false,Rx,0,8,00,00,14,39,91,FE,0C,10,
3956291,00000287,false,Rx,0,8,27,55,27,84,27,10,03,00,
3966291,00000287,false,Rx,0,8,27,53,27,80,27,10,03,00,
3971291,00000286,false,Rx,0,8,00,00,00,3D,00,00,21,00,
3976291,00000287,false,Rx,0,8,27,52,27,7E,27,10,03,00,
3991291,00000286,false,Rx,0,8,00,00,00,3D,00,00,21,00,
3996291,00000287,false,Rx,0,8,27,51,27,7D,27,10,03,00,
4011291,00000286,false,Rx,0,8,00,00,00,3D,00,00,21,00,
4026291,00000285,false,Rx,0,8,00,00,14,39,91,FE,0C,10,
4101291,00000287,false,Rx,0,8,27,47,27,6B,27,10,03,00,
4111291,00000287,false,Rx,0,8,27,46,27,6A,27,10,03,00,
4121291,00000287,false,Rx,0,8,27,45,27,69,27,10,03,00,
4131291,00000287,false,Rx,0,8,27,45,27,68,27,10,03,00,
4141291,00000287,false,Rx,0,8,27,45,27,69,27,10,03,00,
4151291,00000287,false,Rx,0,8,27,46,27,6A,27,10,03,00,
4171291,00000285,false,Rx,0,8,00,00,14,39,91,FE,0C,10,
4306291,00000285,false,Rx,0,8,00,00,14,39,91,FE,0C,10,
4316291,00000285,false,Rx,0,8,00,00,14,39,91,FE,0C,10,
4326291,00000285,false,Rx,0,8,00,00,14,39,91,FE,0C,10,
4336291,00000285,false,Rx,0,8,00,00,14,39,91,FE,0C,10,
4371291,00000287,false,Rx,0,8,27,1E,27,27,27,10,03,00,
4381291,00000287,false,Rx,0,8,27,1E,27,27,27,10,03,00,
4391291,00000287,false,Rx,0,8,27,1D,27,25,27,10,03,00,
4401291,00000287,false,Rx,0,8,27,1C,27,24,27,10,03,00,
4441291,00000285,false,Rx,0,8,00,00,14,39,91,FE,0C,10,
4451291,00000285,false,Rx,0,8,00,00,14,39,91,FE,0C,10,
4461291,00000285,false,Rx,0,8,00,00,14,39,91,FE,0C,10,
4471291,00000285,false,Rx,0,8,00,00,14,39,91,FE,0C,10,
4481291,00000285,false,Rx,0,8,00,00,14,39,91,FE,0C,10,
4491291,00000285,false,Rx,0,8,00,00,14,39,91,FE,0C,10,
4506291,00000287,false,Rx,0,8,27,1C,27,24,27,10,03,00,
4516291,00000287,false,Rx,0,8,27,1D,27,26,27,10,03,00,
4526291,00000287,false,Rx,0,8,27,1E,27,28,27,10,03,00,
4536291,00000287,false,Rx,0,8,27,1F,27,29,27,10,03,00,
4546291,00000287,false,Rx,0,8,27,21,27,2C,27,10,03,00,
4556291,00000287,false,Rx,0,8,27,21,27,2C,27,10,03,00,
4576291,00000285,false,Rx,0,8,00,00,14,39,91,FE,0C,10,
4586291,00000285,false,Rx,0,8,00,00,14,39,91,FE,0C,10,
4641291,00000287,false,Rx,0,8,27,22,27,2E,27,10,03,00,
4646291,00000286,false,Rx,0,8,00,00,00,3D,00,00,21,00,
4651291,00000287,false,Rx,0,8,27,22,27,2D,27,10,03,00,
4661291,00000287,false,Rx,0,8,27,21,27,2D,27,10,03,00,
4671291,00000287,false,Rx,0,8,27,21,27,2C,27,10,03,00,
4681291,00000287,false,Rx,0,8,27,21,27,2C,27,10,03,00,
4686291,00000286,false,Rx,0,8,00,00,00,3D,00,00,21,00,
4691291,00000287,false,Rx,0,8,27,21,27,2D,27,10,03,00,
4711291,00000285,false,Rx,0,8,00,00,14,39,91,FE,0C,10,
4721291,00000285,false,Rx,0,8,00,00,14,39,91,FE,0C,10,
4731291,00000285,false,Rx,0,8,00,00,14,39,91,FE,0C,10,
4741291,00000285,false,Rx,0,8,00,00,14,39,91,FE,0C,10,
4751291,00000285,false,Rx,0,8,00,00,14,39,91,FE,0C,10,
4761291,00000285,false,Rx,0,8,00,00,14,39,91,FE,0C,10,
4786291,00000287,false,Rx,0,8,27,3B,27,58,27,10,03,00,
4806291,00000287,false,Rx,0,8,27,3C,27,59,27,10,03,00,
4856291,00000285,false,Rx,0,8,00,00,14,39,91,FE,0C,10,
4866291,00000285,false,Rx,0,8,00,00,14,39,91,FE,0C,10,
4876291,00000285,false,Rx,0,8,00,00,14,39,91,FE,0C,10,
4886291,00000285,false,Rx,0,8,00,00,14,39,91,FE,0C,10,
4896291,00000285,false,Rx,0,8,00,00,14,39,91,FE,0C,10,
4906291,00000285,false,Rx,0,8,00,00,14,39,91,FE,0C,10,
4916291,00000285,false,Rx,0,8,00,00,14,39,91,FE,0C,10,
4921291,00000287,false,Rx,0,8,27,2C,27,3F,27,10,03,00,
4991291,00000285,false,Rx,0,8,00,00,14,39,91,FE,0C,10,
5136291,00000285,false,Rx,0,8,00,00,14,39,91,FE,0C,10,
5201291,00000287,false,Rx,0,8,26,9A,26,AB,27,10,03,00,
5211291,00000287,false,Rx,0,8,26,9B,26,AB,27,10,03,00,
5221291,00000287,false,Rx,0,8,26,9B,26,AA,27,10,03,00,
5336291,00000287,false,Rx,0,8,26,9B,26,AA,27,10,03,00,
5346291,00000287,false,Rx,0,8,26,9B,26,AA,27,10,03,00,
5356291,00000287,false,Rx,0,8,26,9B,26,AA,27,10,03,00,
5366291,00000287,false,Rx,0,8,26,9B,26,AA,27,10,03,00,
5386291,00000287,false,Rx,0,8,26,9A,26,AB,27,10,03,00,
5396291,00000285,false,Rx,0,8,00,00,14,39,91,FE,0C,10,
5471291,00000287,false,Rx,0,8,26,9B,26,AA,27,10,03,00,
5541291,00000285,false,Rx,0,8,00,00,14,39,91,FE,0C,10,
5551291,00000285,false,Rx,0,8,00,00,14,39,91,FE,0C,10,
5561291,00000285,false,Rx,0,8,00,00,14,39,91,FE,0C,10,
5606291,00000287,false,Rx,0,8,26,38,26,55,27,10,03,00,
5616291,00000287,false,Rx,0,8,25,EB,26,14,27,10,03,00,
5626291,00000287,false,Rx,0,8,25,BF,25,F0,27,10,03,00,
5636291,00000287,false,Rx,0,8,25,9E,25,D7,27,10,03,00,
5646291,00000287,false,Rx,0,8,25,80,25,C1,27,10,03,00,
5656291,00000287,false,Rx,0,8,25,75,25,BA,27,10,03,00,
5676291,00000285,false,Rx,0,8,00,00,14,39,91,FE,0C,10,
5686291,00000285,false,Rx,0,8,00,00,14,39,91,FE,0C,10,
5696291,00000285,false,Rx,0,8,00,00,14,39,91,FE,0C,10,
5741291,00000287,false,Rx,0,8,25,6C,25,B7,27,10,03,00,
5751291,00000287,false,Rx,0,8,25,65,25,B2,27,10,03,00,
5761291,00000287,false,Rx,0,8,25,64,25,B1,27,10,03,00,
5771291,00000287,false,Rx,0,8,25,5C,25,AA,27,10,03,00,
5781291,00000287,false,Rx,0,8,25,49,25,9A,27,10,03,00,
5791291,00000287,false,Rx,0,8,25,39,25,8E,27,10,03,00,
5811291,00000285,false,Rx,0,8,00,00,14,39,91,FE,0C,10,
5821291,00000285,false,Rx,0,8,00,00,14,39,91,FE,0C,10,
5831291,00000285,false,Rx,0,8,00,00,14,39,91,FE,0C,10,
5876291,00000287,false,Rx,0,8,25,26,25,83,27,10,03,00,
5886291,00000287,false,Rx,0,8,25,29,25,86,27,10,03,00,
5896291,00000287,false,Rx,0,8,25,24,25,80,27,10,03,00,
5946291,00000285,false,Rx,0,8,00,00,14,39,91,FE,0C,10,
5956291,00000285,false,Rx,0,8,00,00,14,39,91,FE,0C,10,
5966291,00000285,false,Rx,0,8,00,00,14,39,91,FE,0C,10,
5986291,00000285,false,Rx,0,8,00,00,14,39,91,FE,0C,10,
5996291,00000285,false,Rx,0,8,00,00,14,39,91,FE,0C,10,
6006291,00000285,false,Rx,0,8,00,00,14,39,91,FE,0C,10,
6011291,00000287,false,Rx,0,8,25,2B,25,86,27,10,03,00,
6031291,00000287,false,Rx,0,8,25,2B,25,85,27,10,03,00,
6081291,00000285,false,Rx,0,8,00,00,14,39,91,FE,0C,10,
6091291,00000285,false,Rx,0,8,00,00,14,39,91,FE,0C,10,
6101291,00000285,false,Rx,0,8,00,00,14,39,91,FE,0C,10,
6111291,00000285,false,Rx,0,8,00,00,14,39,91,FE,0C,10,
6121291,00000285,false,Rx,0,8,00,00,14,39,91,FE,0C,10,
6131291,00000285,false,Rx,0,8,00,00,14,39,91,FE,0C,10,
6141291,00000285,false,Rx,0,8,00,00,14,39,91,FE,0C,10,
6151291,00000285,false,Rx,0,8,00,00,14,39,91,FE,0C,10,
6156291,00000287,false,Rx,0,8,25,25,25,80,27,10,03,00,
6171291,00000285,false,Rx,0,8,00,00,14,39,91,FE,0C,10,
6216291,00000285,false,Rx,0,8,00,00,14,39,91,FE,0C,10,
6246291,00000285,false,Rx,0,8,00,00,14,39,91,FE,0C,10,
6286291,00000285,false,Rx,0,8,00,00,14,39,91,FE,0C,10,
6291291,00000287,false,Rx,0,8,25,11,25,74,27,10,03,00,
6361291,00000285,false,Rx,0,8,00,00,14,39,91,FE,0C,10,
6366291,00000285,false,Rx,0,8,00,00,14,39,91,FE,0C,10,
6381291,00000285,false,Rx,0,8,00,00,14,39,91,FE,0C,10,
6401291,00000285,false,Rx,0,8,00,00,14,39,91,FE,0C,10,
6426291,00000287,false,Rx,0,8,25,15,25,7B,27,10,03,00,
6436291,00000287,false,Rx,0,8,25,17,25,7E,27,10,03,00,
6446291,00000287,false,Rx,0,8,25,18,25,80,27,10,03,00,
6491291,00000371,false,Rx,0,8,30,00,00,00,00,00,00,00,
6496291,00000285,false,Rx,0,8,00,00,14,39,91,FE,0C,10,
6511291,00000371,false,Rx,0,8,30,00,00,00,00,00,00,00,
6531291,00000371,false,Rx,0,8,30,00,00,00,00,00,00,00,
6561291,00000287,false,Rx,0,8,25,37,25,94,27,10,03,00,
6571291,00000287,false,Rx,0,8,25,3B,25,95,27,10,03,00,
6581291,00000287,false,Rx,0,8,25,3D,25,97,27,10,03,00,
6591291,00000287,false,Rx,0,8,25,40,25,99,27,10,03,00,
6601291,00000287,false,Rx,0,8,25,43,25,9A,27,10,03,00,
6631291,00000285,false,Rx,0,8,00,00,14,39,91,FE,0C,10,
6691291,00000286,false,Rx,0,8,00,00,00,3D,00,00,21,00,
6696291,00000287,false,Rx,0,8,25,79,25,C6,27,10,03,00,
6711291,00000286,false,Rx,0,8,00,00,00,3D,00,00,21,00,
6716291,00000287,false,Rx,0,8,25,85,25,CE,27,10,03,00,
6766291,00000285,false,Rx,0,8,00,00,14,39,91,FE,0C,10,
6776291,00000285,false,Rx,0,8,00,00,14,39,91,FE,0C,10,
6786291,00000285,false,Rx,0,8,00,00,14,39,91,FE,0C,10,
6796291,00000285,false,Rx,0,8,00,00,14,39,91,FE,0C,10,
6831291,00000287,false,Rx,0,8,25,BD,25,FC,27,10,03,00,
6841291,00000287,false,Rx,0,8,25,C1,25,FF,27,10,03,00,
6851291,00000287,false,Rx,0,8,25,C6,26,03,27,10,03,00,
6861291,00000287,false,Rx,0,8,25,D0,26,0A,27,10,03,00,
6871291,00000287,false,Rx,0,8,25,DC,26,13,27,10,03,00,
6891291,00000287,false,Rx,0,8,26,81,26,99,27,10,03,00,
6901291,00000285,false,Rx,0,8,00,00,14,39,91,FE,0C,10,
6911291,00000285,false,Rx,0,8,00,00,14,39,91,FE,0C,10,
6966291,00000287,false,Rx,0,8,27,10,27,10,27,10,03,00,
6976291,00000287,false,Rx,0,8,27,10,27,10,27,10,03,00,
6986291,00000287,false,Rx,0,8,27,11,27,11,27,10,03,00,
6996291,00000287,false,Rx,0,8,27,1C,27,1F,27,10,03,00,
7006291,00000287,false,Rx,0,8,27,31,27,3A,27,10,03,00,
7016291,00000287,false,Rx,0,8,27,45,27,68,27,10,03,00,
7026291,00000287,false,Rx,0,8,27,5E,27,93,27,10,03,00,
7036291,00000285,false,Rx,0,8,00,00,14,39,91,FE,0C,10,
7046291,00000285,false,Rx,0,8,00,00,14,39,91,FE,0C,10,
7056291,00000285,false,Rx,0,8,00,00,14,39,91,FE,0C,10,
7066291,00000285,false,Rx,0,8,00,00,14,39,91,FE,0C,10,
7161291,00000287,false,Rx,0,8,28,76,29,66,27,10,03,00,
7171291,00000285,false,Rx,0,8,00,00,14,39,91,FE,0C,10,
7181291,00000285,false,Rx,0,8,00,00,14,39,91,FE,0C,10,
7186291,00000371,false,Rx,0,8,30,00,00,00,00,00,00,00,
7201291,00000285,false,Rx,0,8,00,00,14,39,91,FE,0C,10,
7221291,00000285,false,Rx,0,8,00,00,14,39,91,FE,0C,10,
7256291,00000287,false,Rx,0,8,28,9E,29,AA,27,10,03,00,
7276291,00000287,false,Rx,0,8,28,A8,29,BA,27,10,03,00,
7316291,00000285,false,Rx,0,8,00,00,14,39,91,FE,0C,10,
7326291,00000285,false,Rx,0,8,00,00,14,39,91,FE,0C,10,
7336291,00000285,false,Rx,0,8,00,00,14,39,91,FE,0C,10,
7346291,00000285,false,Rx,0,8,00,00,14,39,91,FE,0C,10,
7356291,00000285,false,Rx,0,8,00,00,14,39,91,FE,0C,10,
7366291,00000285,false,Rx,0,8,00,00,14,39,91,FE,0C,10,
7376291,00000285,false,Rx,0,8,00,00,14,39,91,FE,0C,10,
7381291,00000287,false,Rx,0,8,28,9C,29,A5,27,10,03,00,
7386291,00000286,false,Rx,0,8,00,00,00,3D,00,00,21,00,
7406291,00000286,false,Rx,0,8,00,00,00,3D,00,00,21,00,
7426291,00000286,false,Rx,0,8,00,00,00,3D,00,00,21,00,
7451291,00000285,false,Rx,0,8,00,00,14,39,91,FE,0C,10,
7516291,00000287,false,Rx,0,8,28,6C,29,56,27,10,03,00,
7586291,00000285,false,Rx,0,8,00,00,14,39,91,FE,0C,10,
7606291,00000285,false,Rx,0,8,00,00,14,39,91,FE,0C,10,
7626291,00000285,false,Rx,0,8,00,00,14,39,91,FE,0C,10,
7651291,00000287,false,Rx,0,8,28,36,28,FC,27,10,03,00,
7661291,00000287,false,Rx,0,8,28,2E,28,ED,27,10,03,00,
7671291,00000287,false,Rx,0,8,28,25,28,DF,27,10,03,00,
7861291,00000371,false,Rx,0,8,30,00,00,00,00,00,00,00,
7881291,00000371,false,Rx,0,8,30,00,00,00,00,00,00,00,
7901291,00000371,false,Rx,0,8,30,00,00,00,00,00,00,00,
7921291,00000287,false,Rx,0,8,27,85,27,D3,27,10,03,00,
7931291,00000287,false,Rx,0,8,27,85,27,D3,27,10,03,00,
7941291,00000287,false,Rx,0,8,27,85,27,D4,27,10,03,00,
7951291,00000287,false,Rx,0,8,27,84,27,D2,27,10,03,00,
7991291,00000285,false,Rx,0,8,00,00,14,39,91,FE,0C,10,
8001291,00000285,false,Rx,0,8,00,00,14,39,91,FE,0C,10,
8011291,00000285,false,Rx,0,8,00,00,14,39,91,FE,0C,10,
8056291,00000287,false,Rx,0,8,27,92,27,E9,27,10,03,00,
8076291,00000287,false,Rx,0,8,27,93,27,EA,27,10,03,00,
8096291,00000287,false,Rx,0,8,27,93,27,EB,27,10,03,00,
8116291,00000287,false,Rx,0,8,27,93,27,EB,27,10,03,00,
8126291,00000285,false,Rx,0,8,00,00,14,39,91,FE,0C,10,
8201291,00000287,false,Rx,0,8,27,91,27,E8,27,10,03,00,
8211291,00000287,false,Rx,0,8,27,90,27,E6,27,10,03,00,
8221291,00000287,false,Rx,0,8,27,8F,27,E4,27,10,03,00,
8231291,00000287,false,Rx,0,8,27,8F,27,E4,27,10,03,00,
8241291,00000287,false,Rx,0,8,27,8E,27,E3,27,10,03,00,
8251291,00000287,false,Rx,0,8,27,8E,27,E3,27,10,03,00,
8261291,00000285,false,Rx,0,8,00,00,14,39,91,FE,0C,10,
8271291,00000285,false,Rx,0,8,00,00,14,39,91,FE,0C,10,
8281291,00000285,false,Rx,0,8,00,00,14,39,91,FE,0C,10,
8291291,00000285,false,Rx,0,8,00,00,14,39,91,FE,0C,10,
8301291,00000285,false,Rx,0,8,00,00,14,39,91,FE,0C,10,
8416291,00000285,false,Rx,0,8,00,00,14,39,91,FE,0C,10,
8436291,00000285,false,Rx,0,8,00,00,14,39,91,FE,0C,10,
8456291,00000285,false,Rx,0,8,00,00,14,39,91,FE,0C,10,
8471291,00000287,false,Rx,0,8,27,8F,27,E5,27,10,03,00,
8481291,00000287,false,Rx,0,8,27,8F,27,E4,27,10,03,00,
8501291,00000287,false,Rx,0,8,27,8E,27,E3,27,10,03,00,
8536291,00000371,false,Rx,0,8,30,00,00,00,00,00,00,00,
8541291,00000285,false,Rx,0,8,00,00,14,39,91,FE,0C,10,
8551291,00000285,false,Rx,0,8,00,00,14,39,91,FE,0C,10,
8561291,00000285,false,Rx,0,8,00,00,14,39,91,FE,0C,10,
8571291,00000285,false,Rx,0,8,00,00,14,39,91,FE,0C,10,
8581291,00000285,false,Rx,0,8,00,00,14,39,91,FE,0C,10,
8591291,00000285,false,Rx,0,8,00,00,14,39,91,FE,0C,10,
8601291,00000285,false,Rx,0,8,00,00,14,39,91,FE,0C,10,
8606291,00000287,false,Rx,0,8,27,8B,27,DE,27,10,03,00,
8621291,00000285,false,Rx,0,8,00,00,14,39,91,FE,0C,10,
8676291,00000285,false,Rx,0,8,00,00,14,39,91,FE,0C,10,
8756291,00000286,false,Rx,0,8,00,00,00,3D,00,00,21,00,
8776291,00000286,false,Rx,0,8,00,00,00,3D,00,00,21,00,
8796291,00000286,false,Rx,0,8,00,00,00,3D,00,00,21,00,
8811291,00000285,false,Rx,0,8,00,00,14,39,91,FE,0C,10,
8816291,00000286,false,Rx,0,8,00,00,00,3D,00,00,21,00,
8831291,00000285,false,Rx,0,8,00,00,14,39,91,FE,0C,10,
8836291,00000286,false,Rx,0,8,00,00,00,3D,00,00,21,00,
8851291,00000285,false,Rx,0,8,00,00,14,39,91,FE,0C,10,
8876291,00000287,false,Rx,0,8,26,D0,26,D8,27,10,03,00,
8886291,00000287,false,Rx,0,8,26,CA,26,D3,27,10,03,00,
8946291,00000285,false,Rx,0,8,00,00,14,39,91,FE,0C,10,
9011291,00000287,false,Rx,0,8,26,C1,26,CB,27,10,03,00,
9081291,00000285,false,Rx,0,8,00,00,14,39,91,FE,0C,10,
9156291,00000287,false,Rx,0,8,26,AE,26,BB,27,10,03,00,
9166291,00000287,false,Rx,0,8,26,AC,26,B9,27,10,03,00,
9176291,00000287,false,Rx,0,8,26,A8,26,B6,27,10,03,00,
9186291,00000287,false,Rx,0,8,26,A4,26,B2,27,10,03,00,
9216291,00000285,false,Rx,0,8,00,00,14,39,91,FE,0C,10,
9226291,00000285,false,Rx,0,8,00,00,14,39,91,FE,0C,10,
9231291,00000371,false,Rx,0,8,30,00,00,00,00,00,00,00,
9236291,00000285,false,Rx,0,8,00,00,14,39,91,FE,0C,10,
9291291,00000287,false,Rx,0,8,26,9B,26,AB,27,10,03,00,
9301291,00000287,false,Rx,0,8,26,9B,26,AB,27,10,03,00,
9311291,00000287,false,Rx,0,8,26,9B,26,AA,27,10,03,00,
9331291,00000287,false,Rx,0,8,26,9B,26,AA,27,10,03,00,
9351291,00000287,false,Rx,0,8,26,9B,26,AA,27,10,03,00,
9361291,00000285,false,Rx,0,8,00,00,14,39,91,FE,0C,10,
9371291,00000285,false,Rx,0,8,00,00,14,39,91,FE,0C,10,
9426291,00000287,false,Rx,0,8,26,9A,26,AB,27,10,03,00,
9431291,00000286,false,Rx,0,8,00,00,00,3D,00,00,21,00,
9436291,00000287,false,Rx,0,8,26,9B,26,AB,27,10,03,00,
9446291,00000287,false,Rx,0,8,26,9B,26,AA,27,10,03,00,
9456291,00000287,false,Rx,0,8,26,9B,26,AA,27,10,03,00,
9466291,00000287,false,Rx,0,8,26,9B,26,AA,27,10,03,00,
9476291,00000287,false,Rx,0,8,26,9B,26,AA,27,10,03,00,
9486291,00000287,false,Rx,0,8,26,9B,26,AA,27,10,03,00,
9496291,00000285,false,Rx,0,8,00,00,14,39,91,FE,0C,10,
9506291,00000285,false,Rx,0,8,00,00,14,39,91,FE,0C,10,
9526291,00000285,false,Rx,0,8,00,00,14,39,91,FE,0C,10,
9536291,00000285,false,Rx,0,8,00,00,14,39,91,FE,0C,10,
9546291,00000285,false,Rx,0,8,00,00,14,39,91,FE,0C,10,
9561291,00000287,false,Rx,0,8,26,9B,26,AA,27,10,03,00,
9591291,00000287,false,Rx,0,8,26,9A,26,AB,27,10,03,00,
9631291,00000285,false,Rx,0,8,00,00,14,39,91,FE,0C,10,
9641291,00000285,false,Rx,0,8,00,00,14,39,91,FE,0C,10,
9651291,00000285,false,Rx,0,8,00,00,14,39,91,FE,0C,10,
9661291,00000285,false,Rx,0,8,00,00,14,39,91,FE,0C,10,
9671291,00000285,false,Rx,0,8,00,00,14,39,91,FE,0C,10,
9696291,00000287,false,Rx,0,8,26,9B,26,AA,27,10,03,00,
9701291,00000285,false,Rx,0,8,00,00,14,39,91,FE,0C,10,
9706291,00000287,false,Rx,0,8,26,9B,26,AA,27,10,03,00,
9716291,00000287,false,Rx,0,8,26,9B,26,AA,27,10,03,00,
9726291,00000287,false,Rx,0,8,26,9B,26,AB,27,10,03,00,
9766291,00000285,false,Rx,0,8,00,00,14,39,91,FE,0C,10,
9776291,00000285,false,Rx,0,8,00,00,14,39,91,FE,0C,10,
9786291,00000285,false,Rx,0,8,00,00,14,39,91,FE,0C,10,
9806291,00000285,false,Rx,0,8,00,00,14,39,91,FE,0C,10,
9891291,00000285,false,Rx,0,8,00,00,14,39,91,FE,0C,10,
9901291,00000285,false,Rx,0,8,00,00,14,39,91,FE,0C,10,
9941291,00000285,false,Rx,0,8,00,00,14,39,91,FE,0C,10,
9966291,00000287,false,Rx,0,8,25,DE,26,10,27,10,03,00,
10036291,00000285,false,Rx,0,8,00,00,14,39,91,FE,0C,10,
10056291,00000285,false,Rx,0,8,00,00,14,39,91,FE,0C,10,
10076291,00000285,false,Rx,0,8,00,00,14,39,91,FE,0C,10,
10101291,00000287,false,Rx,0,8,25,DE,26,10,27,10,03,00,
10106291,00000286,false,Rx,0,8,00,00,00,3D,00,00,21,00,
10126291,00000286,false,Rx,0,8,00,00,00,3D,00,00,21,00,
10171291,00000285,false,Rx,0,8,00,00,14,39,91,FE,0C,10,
10236291,00000287,false,Rx,0,8,26,10,26,39,27,10,03,00,
10246291,00000287,false,Rx,0,8,26,11,26,39,27,10,03,00,
10306291,00000285,false,Rx,0,8,00,00,14,39,91,FE,0C,10,
10371291,00000287,false,Rx,0,8,25,FA,26,25,27,10,03,00,
10391291,00000287,false,Rx,0,8,25,F9,26,25,27,10,03,00,
10401291,00000287,false,Rx,0,8,25,F9,26,25,27,10,03,00,
10411291,00000287,false,Rx,0,8,25,F9,26,25,27,10,03,00,
10441291,00000285,false,Rx,0,8,00,00,14,39,91,FE,0C,10,
10506291,00000287,false,Rx,0,8,25,C5,25,FC,27,10,03,00,
10526291,00000287,false,Rx,0,8,25,BB,25,F3,27,10,03,00,
10536291,00000287,false,Rx,0,8,25,AB,25,E6,27,10,03,00,
10546291,00000287,false,Rx,0,8,25,A3,25,E0,27,10,03,00,
10556291,00000287,false,Rx,0,8,25,9D,25,DC,27,10,03,00,
10566291,00000285,false,Rx,0,8,00,00,14,39,91,FE,0C,10,
10576291,00000285,false,Rx,0,8,00,00,14,39,91,FE,0C,10,
10581291,00000371,false,Rx,0,8,30,00,00,00,00,00,00,00,
10586291,00000285,false,Rx,0,8,00,00,14,39,91,FE,0C,10,
10601291,00000371,false,Rx,0,8,30,00,00,00,00,00,00,00,
10621291,00000371,false,Rx,0,8,30,00,00,00,00,00,00,00,
10641291,00000287,false,Rx,0,8,25,93,25,D5,27,10,03,00,
10661291,00000287,false,Rx,0,8,25,93,25,D5,27,10,03,00,
10681291,00000287,false,Rx,0,8,25,93,25,D4,27,10,03,00,
10701291,00000287,false,Rx,0,8,25,93,25,D5,27,10,03,00,
10711291,00000285,false,Rx,0,8,00,00,14,39,91,FE,0C,10,
10721291,00000285,false,Rx,0,8,00,00,14,39,91,FE,0C,10,
10731291,00000285,false,Rx,0,8,00,00,14,39,91,FE,0C,10,
10741291,00000285,false,Rx,0,8,00,00,14,39,91,FE,0C,10,
10751291,00000285,false,Rx,0,8,00,00,14,39,91,FE,0C,10,
10761291,00000285,false,Rx,0,8,00,00,14,39,91,FE,0C,10,
10771291,00000285,false,Rx,0,8,00,00,14,39,91,FE,0C,10,
10776291,00000287,false,Rx,0,8,25,8E,25,D0,27,10,03,00,
10816291,00000287,false,Rx,0,8,25,78,25,BF,27,10,03,00,
10846291,00000285,false,Rx,0,8,00,00,14,39,91,FE,0C,10,
10856291,00000285,false,Rx,0,8,00,00,14,39,91,FE,0C,10,
10866291,00000285,false,Rx,0,8,00,00,14,39,91,FE,0C,10,
10876291,00000285,false,Rx,0,8,00,00,14,39,91,FE,0C,10,
10886291,00000285,false,Rx,0,8,00,00,14,39,91,FE,0C,10,
10896291,00000285,false,Rx,0,8,00,00,14,39,91,FE,0C,10,
10906291,00000285,false,Rx,0,8,00,00,14,39,91,FE,0C,10,
10911291,00000287,false,Rx,0,8,25,65,25,B1,27,10,03,00,
10916291,00000285,false,Rx,0,8,00,00,14,39,91,FE,0C,10,
10921291,00000287,false,Rx,0,8,25,65,25,B2,27,10,03,00,
10931291,00000287,false,Rx,0,8,25,65,25,B2,27,10,03,00,
10936291,00000285,false,Rx,0,8,00,00,14,39,91,FE,0C,10,
10941291,00000287,false,Rx,0,8,25,65,25,B2,27,10,03,00,
10951291,00000287,false,Rx,0,8,25,65,25,B2,27,10,03,00,
10981291,00000285,false,Rx,0,8,00,00,14,39,91,FE,0C,10,
10991291,00000285,false,Rx,0,8,00,00,14,39,91,FE,0C,10,
11001291,00000285,false,Rx,0,8,00,00,14,39,91,FE,0C,10,
11021291,00000285,false,Rx,0,8,00,00,14,39,91,FE,0C,10,
11041291,00000285,false,Rx,0,8,00,00,14,39,91,FE,0C,10,
11056291,00000287,false,Rx,0,8,25,74,25,BC,27,10,03,00,
11116291,00000285,false,Rx,0,8,00,00,14,39,91,FE,0C,10,
11126291,00000285,false,Rx,0,8,00,00,14,39,91,FE,0C,10,
11191291,00000287,false,Rx,0,8,25,CA,26,01,27,10,03,00,
11256291,00000371,false,Rx,0,8,30,00,00,00,00,00,00,00,
11261291,00000285,false,Rx,0,8,00,00,14,39,91,FE,0C,10,
11271291,00000285,false,Rx,0,8,00,00,14,39,91,FE,0C,10,
11276291,00000371,false,Rx,0,8,30,00,00,00,00,00,00,00,
11296291,00000371,false,Rx,0,8,30,00,00,00,00,00,00,00,
11326291,00000287,false,Rx,0,8,25,8C,25,CF,27,10,03,00,
11396291,00000285,false,Rx,0,8,00,00,14,39,91,FE,0C,10,
11456291,00000286,false,Rx,0,8,00,00,00,3D,00,00,21,00,
11461291,00000287,false,Rx,0,8,25,7E,25,C2,27,10,03,00,
11471291,00000287,false,Rx,0,8,25,81,25,C5,27,10,03,00,
11476291,00000286,false,Rx,0,8,00,00,00,3D,00,00,21,00,
11521291,00000285,false,Rx,0,8,00,00,14,39,91,FE,0C,10,
11536291,00000286,false,Rx,0,8,00,00,00,3D,00,00,21,00,
11576291,00000286,false,Rx,0,8,00,00,00,3D,00,00,21,00,
11596291,00000287,false,Rx,0,8,25,B1,25,F0,27,10,03,00,
11606291,00000287,false,Rx,0,8,25,B6,25,F2,27,10,03,00,
11616291,00000287,false,Rx,0,8,25,BB,25,F4,27,10,03,00,
11626291,00000287,false,Rx,0,8,25,C1,25,F7,27,10,03,00,
11636291,00000287,false,Rx,0,8,25,C5,25,FA,27,10,03,00,
11646291,00000287,false,Rx,0,8,25,C8,25,FD,27,10,03,00,
11666291,00000285,false,Rx,0,8,00,00,14,39,91,FE,0C,10,
11731291,00000287,false,Rx,0,8,26,43,26,73,27,10,03,00,
11741291,00000287,false,Rx,0,8,26,57,26,83,27,10,03,00,
11751291,00000287,false,Rx,0,8,26,6B,26,91,27,10,03,00,
11761291,00000287,false,Rx,0,8,26,7D,26,9E,27,10,03,00,
11771291,00000287,false,Rx,0,8,26,8E,26,AB,27,10,03,00,
11781291,00000287,false,Rx,0,8,26,A1,26,B9,27,10,03,00,
11791291,00000287,false,Rx,0,8,26,B2,26,C7,27,10,03,00,
11801291,00000285,false,Rx,0,8,00,00,14,39,91,FE,0C,10,
11811291,00000285,false,Rx,0,8,00,00,14,39,91,FE,0C,10,
11821291,00000285,false,Rx,0,8,00,00,14,39,91,FE,0C,10,
11866291,00000287,false,Rx,0,8,27,10,27,10,27,10,03,00,
11876291,00000287,false,Rx,0,8,27,10,27,10,27,10,03,00,
11896291,00000287,false,Rx,0,8,27,10,27,10,27,10,03,00,
11916291,00000287,false,Rx,0,8,27,10,27,10,27,10,03,00,
11926291,00000285,false,Rx,0,8,00,00,14,39,91,FE,0C,10,
11931291,00000371,false,Rx,0,8,30,00,00,00,00,00,00,00,
11936291,00000285,false,Rx,0,8,00,00,14,39,91,FE,0C,10,
11946291,00000285,false,Rx,0,8,00,00,14,39,91,FE,0C,10,
11956291,00000285,false,Rx,0,8,00,00,14,39,91,FE,0C,10,
11966291,00000285,false,Rx,0,8,00,00,14,39,91,FE,0C,10,
11976291,00000285,false,Rx,0,8,00,00,14,39,91,FE,0C,10,
11986291,00000285,false,Rx,0,8,00,00,14,39,91,FE,0C,10,
12061291,00000285,false,Rx,0,8,00,00,14,39,91,FE,0C,10,
12071291,00000285,false,Rx,0,8,00,00,14,39,91,FE,0C,10,
12081291,00000285,false,Rx,0,8,00,00,14,39,91,FE,0C,10,
12091291,00000285,false,Rx,0,8,00,00,14,39,91,FE,0C,10,
12101291,00000285,false,Rx,0,8,00,00,14,39,91,FE,0C,10,
12111291,00000285,false,Rx,0,8,00,00,14,39,91,FE,0C,10,
12121291,00000285,false,Rx,0,8,00,00,14,39,91,FE,0C,10,
12131291,00000286,false,Rx,0,8,00,00,00,3D,00,00,0A,00,
12171291,00000286,false,Rx,0,8,00,00,00,3D,00,00,0A,00,
12196291,00000285,false,Rx,0,8,00,00,14,39,92,FE,0C,10,
12206291,00000285,false,Rx,0,8,00,00,14,39,92,FE,0C,10,
12216291,00000285,false,Rx,0,8,00,00,14,39,92,FE,0C,10,
12226291,00000285,false,Rx,0,8,00,00,14,39,92,FE,0C,10,
12236291,00000285,false,Rx,0,8,00,00,14,39,92,FE,0C,10,
12246291,00000285,false,Rx,0,8,00,00,14,39,92,FE,0C,10,
12271291,00000287,false,Rx,0,8,27,10,27,10,27,10,00,00,
12341291,00000285,false,Rx,0,8,00,00,14,39,92,FE,0C,10,
12351291,00000285,false,Rx,0,8,00,00,14,39,92,FE,0C,10,
12371291,00000285,false,Rx,0,8,00,00,14,39,92,FE,0C,10,
12476291,00000285,false,Rx,0,8,00,00,14,39,92,FE,0C,10,
12486291,00000285,false,Rx,0,8,00,00,14,39,92,FE,0C,10,
12496291,00000285,false,Rx,0,8,00,00,14,39,92,FE,0C,10,
12506291,00000285,false,Rx,0,8,00,00,14,39,92,FE,0C,10,
12516291,00000285,false,Rx,0,8,00,00,14,39,92,FE,0C,10,
12526291,00000285,false,Rx,0,8,00,00,14,39,92,FE,0C,10,
12541291,00000287,false,Rx,0,8,27,10,27,10,27,10,00,00,
12606291,00000371,false,Rx,0,8,30,00,00,00,00,00,00,00,
12626291,00000371,false,Rx,0,8,30,00,00,00,00,00,00,00,
12646291,00000371,false,Rx,0,8,30,00,00,00,00,00,00,00,
12666291,00000371,false,Rx,0,8,30,00,00,00,00,00,00,00,
12676291,00000287,false,Rx,0,8,27,10,27,10,27,10,00,00,
12686291,00000287,false,Rx,0,8,27,10,27,10,27,10,00,00,
12696291,00000287,false,Rx,0,8,27,10,27,10,27,10,00,00,
12811291,00000287,false,Rx,0,8,27,10,27,10,27,10,00,00,
12821291,00000287,false,Rx,0,8,27,10,27,10,27,10,00,00,
12831291,00000287,false,Rx,0,8,27,10,27,10,27,10,00,00,
12841291,00000287,false,Rx,0,8,27,10,27,10,27,10,00,00,
12851291,00000287,false,Rx,0,8,27,10,27,10,27,10,00,00,
12861291,00000287,false,Rx,0,8,27,10,27,10,27,10,00,00,
12956291,00000287,false,Rx,0,8,27,10,27,10,27,10,00,00,
12966291,00000287,false,Rx,0,8,27,10,27,10,27,10,00,00,
12976291,00000287,false,Rx,0,8,27,10,27,10,27,10,00,00,
12986291,00000287,false,Rx,0,8,27,10,27,10,27,10,00,00,
12996291,00000287,false,Rx,0,8,27,10,27,10,27,10,00,00,
13006291,00000287,false,Rx,0,8,27,10,27,10,27,10,00,00,
13016291,00000287,false,Rx,0,8,27,10,27,10,27,10,00,00,
13026291,00000285,false,Rx,0,8,00,00,14,39,92,FE,0C,10,
13036291,00000285,false,Rx,0,8,00,00,14,39,92,FE,0C,10,
13046291,00000285,false,Rx,0,8,00,00,14,39,92,FE,0C,10,
13091291,00000287,false,Rx,0,8,27,10,27,10,27,10,00,00,
13101291,00000287,false,Rx,0,8,27,10,27,10,27,10,00,00,
13111291,00000287,false,Rx,0,8,27,10,27,10,27,10,00,00,
13121291,00000287,false,Rx,0,8,27,10,27,10,27,10,00,00,
13131291,00000287,false,Rx,0,8,27,10,27,10,27,10,00,00,
13141291,00000287,false,Rx,0,8,27,10,27,10,27,10,00,00,
13151291,00000285,false,Rx,0,8,00,00,14,39,92,FE,0C,10,
13161291,00000285,false,Rx,0,8,00,00,14,39,92,FE,0C,10,
13171291,00000285,false,Rx,0,8,00,00,14,39,92,FE,0C,10,
13181291,00000285,false,Rx,0,8,00,00,14,39,92,FE,0C,10,
13201291,00000285,false,Rx,0,8,00,00,14,39,92,FE,0C,10,
13226291,00000287,false,Rx,0,8,27,10,27,10,27,10,00,00,
13246291,00000287,false,Rx,0,8,27,10,27,10,27,10,00,00,
13296291,00000285,false,Rx,0,8,00,00,14,39,92,FE,0C,10,
13306291,00000285,false,Rx,0,8,00,00,14,39,92,FE,0C,10,
13316291,00000285,false,Rx,0,8,00,00,14,39,92,FE,0C,10,
13326291,00000285,false,Rx,0,8,00,00,14,39,92,FE,0C,10,
13336291,00000285,false,Rx,0,8,00,00,14,39,92,FE,0C,10,
13346291,00000285,false,Rx,0,8,00,00,14,39,92,FE,0C,10,
13361291,00000287,false,Rx,0,8,27,42,27,42,27,10,03,00,
13366291,00000285,false,Rx,0,8,00,00,14,39,91,FE,0C,10,
13371291,00000287,false,Rx,0,8,27,75,27,72,27,10,03,00,
13381291,00000287,false,Rx,0,8,27,C1,28,0D,27,10,03,00,
13386291,00000285,false,Rx,0,8,00,00,14,39,91,FE,0C,10,
13391291,00000287,false,Rx,0,8,27,C1,28,38,27,10,03,00,
13401291,00000287,false,Rx,0,8,27,C1,28,38,27,10,03,00,
13421291,00000285,false,Rx,0,8,00,00,14,39,91,FE,0C,10,
13431291,00000285,false,Rx,0,8,00,00,14,39,91,FE,0C,10,
13441291,00000285,false,Rx,0,8,00,00,14,39,91,FE,0C,10,
13451291,00000285,false,Rx,0,8,00,00,14,39,91,FE,0C,10,
13461291,00000285,false,Rx,0,8,00,00,14,39,91,FE,0C,10,
13471291,00000285,false,Rx,0,8,00,00,14,39,91,FE,0C,10,
13501291,00000286,false,Rx,0,8,00,00,00,3D,00,00,0A,00,
13521291,00000286,false,Rx,0,8,00,00,00,3D,00,00,0A,00,
13541291,00000286,false,Rx,0,8,00,00,00,3D,00,00,0A,00,
13561291,00000286,false,Rx,0,8,00,00,00,3D,00,00,21,00,
13566291,00000285,false,Rx,0,8,00,00,14,39,91,FE,0C,10,
13576291,00000285,false,Rx,0,8,00,00,14,39,91,FE,0C,10,
13631291,00000287,false,Rx,0,8,29,41,2A,B9,27,10,03,00,
13651291,00000287,false,Rx,0,8,29,33,2A,A1,27,10,03,00,
13701291,00000285,false,Rx,0,8,00,00,14,39,91,FE,0C,10,
13711291,00000285,false,Rx,0,8,00,00,14,39,91,FE,0C,10,
13721291,00000285,false,Rx,0,8,00,00,14,39,91,FE,0C,10,
13731291,00000285,false,Rx,0,8,00,00,14,39,91,FE,0C,10,
13741291,00000285,false,Rx,0,8,00,00,14,39,91,FE,0C,10,
13751291,00000285,false,Rx,0,8,00,00,14,39,91,FE,0C,10,
13911291,00000287,false,Rx,0,8,29,5F,29,A3,27,10,03,00,
13921291,00000287,false,Rx,0,8,29,61,29,9E,27,10,03,00,
13976291,00000371,false,Rx,0,8,30,00,00,00,00,00,00,00,
13981291,00000285,false,Rx,0,8,00,00,14,39,91,FE,0C,10,
13996291,00000371,false,Rx,0,8,30,00,00,00,00,00,00,00,
14016291,00000371,false,Rx,0,8,30,00,00,00,00,00,00,00,
14036291,00000371,false,Rx,0,8,30,00,00,00,00,00,00,00,
14046291,00000287,false,Rx,0,8,29,75,29,61,27,10,03,00,
14066291,00000287,false,Rx,0,8,29,75,29,5C,27,10,03,00,
14076291,00000287,false,Rx,0,8,29,72,29,5C,27,10,03,00,
14086291,00000287,false,Rx,0,8,29,69,29,65,27,10,03,00,
14116291,00000285,false,Rx,0,8,00,00,14,39,91,FE,0C,10,
14176291,00000286,false,Rx,0,8,00,00,00,3D,00,00,21,00,
14181291,00000287,false,Rx,0,8,29,50,29,50,27,10,03,00,
14191291,00000287,false,Rx,0,8,29,52,29,45,27,10,03,00,
14201291,00000287,false,Rx,0,8,29,54,29,41,27,10,03,00,
14211291,00000287,false,Rx,0,8,29,52,29,42,27,10,03,00,
14221291,00000287,false,Rx,0,8,29,50,29,42,27,10,03,00,
14231291,00000287,false,Rx,0,8,29,4D,29,42,27,10,03,00,
14241291,00000287,false,Rx,0,8,29,4B,29,41,27,10,03,00,
14251291,00000285,false,Rx,0,8,00,00,14,39,91,FE,0C,10,
14261291,00000285,false,Rx,0,8,00,00,14,39,91,FE,0C,10,
14316291,00000287,false,Rx,0,8,29,37,29,24,27,10,03,00,
14326291,00000287,false,Rx,0,8,29,31,29,26,27,10,03,00,
14336291,00000287,false,Rx,0,8,29,2C,29,28,27,10,03,00,
14346291,00000287,false,Rx,0,8,29,27,29,2A,27,10,03,00,
14356291,00000287,false,Rx,0,8,29,22,29,2C,27,10,03,00,
14366291,00000287,false,Rx,0,8,29,20,29,2F,27,10,03,00,
14386291,00000285,false,Rx,0,8,00,00,14,39,91,FE,0C,10,
14396291,00000285,false,Rx,0,8,00,00,14,39,91,FE,0C,10,
14406291,00000285,false,Rx,0,8,00,00,14,39,91,FE,0C,10,
14416291,00000285,false,Rx,0,8,00,00,14,39,91,FE,0C,10,
14426291,00000285,false,Rx,0,8,00,00,14,39,91,FE,0C,10,
14436291,00000285,false,Rx,0,8,00,00,14,39,91,FE,0C,10,
14446291,00000285,false,Rx,0,8,00,00,14,39,91,FE,0C,10,
14451291,00000287,false,Rx,0,8,28,FA,29,47,27,10,03,00,
14461291,00000287,false,Rx,0,8,28,F5,29,49,27,10,03,00,
14521291,00000285,false,Rx,0,8,00,00,14,39,91,FE,0C,10,
14531291,00000285,false,Rx,0,8,00,00,14,39,91,FE,0C,10,
14541291,00000285,false,Rx,0,8,00,00,14,39,91,FE,0C,10,
14551291,00000285,false,Rx,0,8,00,00,14,39,91,FE,0C,10,
14561291,00000285,false,Rx,0,8,00,00,14,39,91,FE,0C,10,
14571291,00000285,false,Rx,0,8,00,00,14,39,91,FE,0C,10,
14581291,00000285,false,Rx,0,8,00,00,14,39,91,FE,0C,10,
14586291,00000287,false,Rx,0,8,28,BA,29,62,27,10,03,00,
14596291,00000287,false,Rx,0,8,28,B6,29,64,27,10,03,00,
14601291,00000285,false,Rx,0,8,00,00,14,39,91,FE,0C,10,
14606291,00000287,false,Rx,0,8,28,B1,29,66,27,10,03,00,
14616291,00000287,false,Rx,0,8,28,AD,29,68,27,10,03,00,
14626291,00000287,false,Rx,0,8,28,A8,29,69,27,10,03,00,
14636291,00000287,false,Rx,0,8,28,A3,29,6A,27,10,03,00,
14656291,00000285,false,Rx,0,8,00,00,14,39,91,FE,0C,10,
14666291,00000285,false,Rx,0,8,00,00,14,39,91,FE,0C,10,
14671291,00000371,false,Rx,0,8,30,00,00,00,00,00,00,00,
14676291,00000285,false,Rx,0,8,00,00,14,39,91,FE,0C,10,
14686291,00000285,false,Rx,0,8,00,00,14,39,91,FE,0C,10,
14801291,00000285,false,Rx,0,8,00,00,14,39,91,FE,0C,10,
14811291,00000285,false,Rx,0,8,00,00,14,39,91,FE,0C,10,
14841291,00000285,false,Rx,0,8,00,00,14,39,91,FE,0C,10,
14871291,00000286,false,Rx,0,8,00,00,00,3D,00,00,21,00,
14891291,00000286,false,Rx,0,8,00,00,00,3D,00,00,21,00,
14911291,00000286,false,Rx,0,8,00,00,00,3D,00,00,21,00,
14931291,00000286,false,Rx,0,8,00,00,00,3D,00,00,21,00,
14936291,00000285,false,Rx,0,8,00,00,14,39,91,FE,0C,10,
14946291,00000285,false,Rx,0,8,00,00,14,39,91,FE,0C,10,
14956291,00000285,false,Rx,0,8,00,00,14,39,91,FE,0C,10,
14966291,00000285,false,Rx,0,8,00,00,14,39,91,FE,0C,10,
14976291,00000285,false,Rx,0,8,00,00,14,39,91,FE,0C,10,
15001291,00000287,false,Rx,0,8,28,26,28,E0,27,10,03,00,
15071291,00000285,false,Rx,0,8,00,00,14,39,91,FE,0C,10,
15136291,00000287,false,Rx,0,8,28,16,28,C6,27,10,03,00,
15206291,00000285,false,Rx,0,8,00,00,14,39,91,FE,0C,10,
15271291,00000287,false,Rx,0,8,28,08,28,AF,27,10,03,00,
15281291,00000287,false,Rx,0,8,28,07,28,AC,27,10,03,00,
15291291,00000287,false,Rx,0,8,28,05,28,A9,27,10,03,00,
15301291,00000287,false,Rx,0,8,28,03,28,A7,27,10,03,00,
15311291,00000287,false,Rx,0,8,28,02,28,A4,27,10,03,00,
15341291,00000285,false,Rx,0,8,00,00,14,39,91,FE,0C,10,
15406291,00000287,false,Rx,0,8,27,F5,28,8E,27,10,03,00,
15416291,00000287,false,Rx,0,8,27,F3,28,8C,27,10,03,00,
15426291,00000287,false,Rx,0,8,27,F1,28,88,27,10,03,00,
15436291,00000287,false,Rx,0,8,27,EE,28,83,27,10,03,00,
15446291,00000287,false,Rx,0,8,27,EB,28,7E,27,10,03,00,
15466291,00000287,false,Rx,0,8,27,E2,28,70,27,10,03,00,
15476291,00000285,false,Rx,0,8,00,00,14,39,91,FE,0C,10,
15486291,00000285,false,Rx,0,8,00,00,14,39,91,FE,0C,10,
15541291,00000287,false,Rx,0,8,27,BC,28,2F,27,10,03,00,
15546291,00000286,false,Rx,0,8,00,00,00,3D,00,00,21,00,
15551291,00000287,false,Rx,0,8,27,BA,28,2B,27,10,03,00,
15561291,00000287,false,Rx,0,8,27,B8,28,29,27,10,03,00,
15571291,00000287,false,Rx,0,8,27,B6,28,26,27,10,03,00,
15581291,00000287,false,Rx,0,8,27,B5,28,24,27,10,03,00,
15591291,00000287,false,Rx,0,8,27,B4,28,22,27,10,03,00,
15611291,00000285,false,Rx,0,8,00,00,14,39,91,FE,0C,10,
15621291,00000285,false,Rx,0,8,00,00,14,39,91,FE,0C,10,
15631291,00000285,false,Rx,0,8,00,00,14,39,91,FE,0C,10,
15641291,00000285,false,Rx,0,8,00,00,14,39,91,FE,0C,10,
15651291,00000285,false,Rx,0,8,00,00,14,39,91,FE,0C,10,
15661291,00000285,false,Rx,0,8,00,00,14,39,91,FE,0C,10,
15676291,00000287,false,Rx,0,8,27,9D,27,FC,27,10,03,00,
15686291,00000287,false,Rx,0,8,27,9A,27,F6,27,10,03,00,
15716291,00000287,false,Rx,0,8,27,97,27,F1,27,10,03,00,
15746291,00000285,false,Rx,0,8,00,00,14,39,91,FE,0C,10,
15766291,00000285,false,Rx,0,8,00,00,14,39,91,FE,0C,10,
15786291,00000285,false,Rx,0,8,00,00,14,39,91,FE,0C,10,
15806291,00000285,false,Rx,0,8,00,00,14,39,91,FE,0C,10,
15811291,00000287,false,Rx,0,8,27,99,27,F4,27,10,03,00,
15821291,00000287,false,Rx,0,8,27,9C,27,FA,27,10,03,00,
15831291,00000287,false,Rx,0,8,27,9F,27,FE,27,10,03,00,
15841291,00000287,false,Rx,0,8,27,A1,28,02,27,10,03,00,
15851291,00000287,false,Rx,0,8,27,A1,28,03,27,10,03,00,
15861291,00000287,false,Rx,0,8,27,A3,28,05,27,10,03,00,
15881291,00000285,false,Rx,0,8,00,00,14,39,91,FE,0C,10,
15891291,00000285,false,Rx,0,8,00,00,14,39,91,FE,0C,10,
15911291,00000285,false,Rx,0,8,00,00,14,39,91,FE,0C,10,
15946291,00000287,false,Rx,0,8,27,BF,28,35,27,10,03,00,
15951291,00000285,false,Rx,0,8,00,00,14,39,91,FE,0C,10,
15966291,00000287,false,Rx,0,8,27,C0,28,37,27,10,03,00,
15986291,00000287,false,Rx,0,8,27,C1,28,38,27,10,03,00,
15991291,00000285,false,Rx,0,8,00,00,14,39,91,FE,0C,10,
16006291,00000287,false,Rx,0,8,27,CA,28,47,27,10,03,00,
16016291,00000285,false,Rx,0,8,00,00,14,39,91,FE,0C,10,
16026291,00000285,false,Rx,0,8,00,00,14,39,91,FE,0C,10,
16036291,00000285,false,Rx,0,8,00,00,14,39,91,FE,0C,10,
16091291,00000287,false,Rx,0,8,27,D2,28,54,27,10,03,00,
16106291,00000285,false,Rx,0,8,00,00,14,39,91,FE,0C,10,
16146291,00000285,false,Rx,0,8,00,00,14,39,91,FE,0C,10,
16151291,00000285,false,Rx,0,8,00,00,14,39,91,FE,0C,10,
16161291,00000285,false,Rx,0,8,00,00,14,39,91,FE,0C,10,
16171291,00000285,false,Rx,0,8,00,00,14,39,91,FE,0C,10,
16181291,00000285,false,Rx,0,8,00,00,14,39,91,FE,0C,10,
16191291,00000285,false,Rx,0,8,00,00,14,39,91,FE,0C,10,
16201291,00000285,false,Rx,0,8,00,00,14,39,91,FE,0C,10,
16216291,00000287,false,Rx,0,8,27,CD,28,4D,27,10,03,00,
16276291,00000285,false,Rx,0,8,00,00,14,39,91,FE,0C,10,
16296291,00000285,false,Rx,0,8,00,00,14,39,91,FE,0C,10,
16321291,00000287,false,Rx,0,8,27,CB,28,48,27,10,03,00,
16436291,00000287,false,Rx,0,8,27,D7,28,5C,27,10,03,00,
16541291,00000287,false,Rx,0,8,27,DD,28,66,27,10,03,00,
16551291,00000287,false,Rx,0,8,27,DC,28,65,27,10,03,00,
16561291,00000287,false,Rx,0,8,27,DB,28,63,27,10,03,00,
16596291,00000371,false,Rx,0,8,30,00,00,00,00,00,00,00,
16601291,00000285,false,Rx,0,8,00,00,14,39,91,FE,0C,10,
16646291,00000287,false,Rx,0,8,27,D1,28,53,27,10,03,00,
16656291,00000287,false,Rx,0,8,27,D1,28,52,27,10,03,00,
16666291,00000287,false,Rx,0,8,27,D0,28,51,27,10,03,00,
16676291,00000287,false,Rx,0,8,27,D0,28,50,27,10,03,00,
16686291,00000287,false,Rx,0,8,27,CF,28,4F,27,10,03,00,
16696291,00000285,false,Rx,0,8,00,00,14,39,91,FE,0C,10,
16751291,00000287,false,Rx,0,8,27,CE,28,4E,27,10,03,00,
16756291,00000286,false,Rx,0,8,00,00,00,3D,00,00,21,00,
16771291,00000287,false,Rx,0,8,27,CD,28,4D,27,10,03,00,
16781291,00000287,false,Rx,0,8,27,CD,28,4C,27,10,03,00,
16791291,00000287,false,Rx,0,8,27,CC,28,4A,27,10,03,00,
16811291,00000285,false,Rx,0,8,00,00,14,39,91,FE,0C,10,
16821291,00000285,false,Rx,0,8,00,00,14,39,91,FE,0C,10,
16831291,00000285,false,Rx,0,8,00,00,14,39,91,FE,0C,10,
16866291,00000287,false,Rx,0,8,27,CA,28,47,27,10,03,00,
16916291,00000285,false,Rx,0,8,00,00,14,39,91,FE,0C,10,
16926291,00000285,false,Rx,0,8,00,00,14,39,91,FE,0C,10,
16936291,00000285,false,Rx,0,8,00,00,14,39,91,FE,0C,10,
16946291,00000285,false,Rx,0,8,00,00,14,39,91,FE,0C,10,
16956291,00000285,false,Rx,0,8,00,00,14,39,91,FE,0C,10,
16971291,00000287,false,Rx,0,8,27,AA,28,11,27,10,03,00,
16981291,00000287,false,Rx,0,8,27,A8,28,0F,27,10,03,00,
16991291,00000287,false,Rx,0,8,27,A7,28,0C,27,10,03,00,
17021291,00000285,false,Rx,0,8,00,00,14,39,91,FE,0C,10,
17031291,00000285,false,Rx,0,8,00,00,14,39,91,FE,0C,10,
17041291,00000285,false,Rx,0,8,00,00,14,39,91,FE,0C,10,
17051291,00000285,false,Rx,0,8,00,00,14,39,91,FE,0C,10,
17061291,00000285,false,Rx,0,8,00,00,14,39,91,FE,0C,10,
17071291,00000285,false,Rx,0,8,00,00,14,39,91,FE,0C,10,
17076291,00000287,false,Rx,0,8,27,A8,28,0F,27,10,03,00,
17081291,00000285,false,Rx,0,8,00,00,14,39,91,FE,0C,10,
17086291,00000287,false,Rx,0,8,27,A9,28,10,27,10,03,00,
17096291,00000287,false,Rx,0,8,27,A9,28,10,27,10,03,00,
17131291,00000371,false,Rx,0,8,30,00,00,00,00,00,00,00,
17146291,00000285,false,Rx,0,8,00,00,14,39,91,FE,0C,10,
17191291,00000287,false,Rx,0,8,27,C7,28,43,27,10,03,00,
17201291,00000287,false,Rx,0,8,27,C8,28,43,27,10,03,00,
17241291,00000285,false,Rx,0,8,00,00,14,39,91,FE,0C,10,
17251291,00000285,false,Rx,0,8,00,00,14,39,91,FE,0C,10,
17261291,00000285,false,Rx,0,8,00,00,14,39,91,FE,0C,10,
17291291,00000286,false,Rx,0,8,00,00,00,3D,00,00,21,00,
17296291,00000287,false,Rx,0,8,27,C8,28,44,27,10,03,00,
17311291,00000286,false,Rx,0,8,00,00,00,3D,00,00,21,00,
17331291,00000286,false,Rx,0,8,00,00,00,3D,00,00,21,00,
17346291,00000285,false,Rx,0,8,00,00,14,39,91,FE,0C,10,
17351291,00000286,false,Rx,0,8,00,00,00,3D,00,00,21,00,
17356291,00000285,false,Rx,0,8,00,00,14,39,91,FE,0C,10,
17366291,00000285,false,Rx,0,8,00,00,14,39,91,FE,0C,10,
17376291,00000285,false,Rx,0,8,00,00,14,39,91,FE,0C,10,
17386291,00000285,false,Rx,0,8,00,00,14,39,91,FE,0C,10,
17396291,00000285,false,Rx,0,8,00,00,14,39,91,FE,0C,10,
17471291,00000285,false,Rx,0,8,00,00,14,39,91,FE,0C,10,
17491291,00000285,false,Rx,0,8,00,00,14,39,91,FE,0C,10,
17516291,00000287,false,Rx,0,8,27,C5,28,3F,27,10,03,00,
17526291,00000287,false,Rx,0,8,27,C5,28,3E,27,10,03,00,
17566291,00000285,false,Rx,0,8,00,00,14,39,91,FE,0C,10,
17671291,00000285,false,Rx,0,8,00,00,14,39,91,FE,0C,10,
17686291,00000371,false,Rx,0,8,30,00,00,00,00,00,00,00,
17706291,00000371,false,Rx,0,8,30,00,00,00,00,00,00,00,
17726291,00000287,false,Rx,0,8,27,C2,28,39,27,10,03,00,
17746291,00000287,false,Rx,0,8,27,C3,28,3B,27,10,03,00,
17786291,00000285,false,Rx,0,8,00,00,14,39,91,FE,0C,10,
17831291,00000287,false,Rx,0,8,27,C3,28,3C,27,10,03,00,
17841291,00000287,false,Rx,0,8,27,C3,28,3C,27,10,03,00,
17851291,00000287,false,Rx,0,8,27,C3,28,3C,27,10,03,00,
17861291,00000287,false,Rx,0,8,27,C3,28,3B,27,10,03,00,
17871291,00000287,false,Rx,0,8,27,C3,28,3B,27,10,03,00,
17891291,00000285,false,Rx,0,8,00,00,14,39,91,FE,0C,10,
17936291,00000287,false,Rx,0,8,27,C2,28,3A,27,10,03,00,
17946291,00000287,false,Rx,0,8,27,C2,28,3A,27,10,03,00,
17956291,00000287,false,Rx,0,8,27,C2,28,3A,27,10,03,00,
17966291,00000287,false,Rx,0,8,27,C2,28,3A,27,10,03,00,
17976291,00000287,false,Rx,0,8,27,C2,28,3A,27,10,03,00,
17986291,00000287,false,Rx,0,8,27,C2,28,3A,27,10,03,00,
17996291,00000285,false,Rx,0,8,00,00,14,39,91,FE,0C,10,
18041291,00000287,false,Rx,0,8,27,C0,28,37,27,10,03,00,
18091291,00000287,false,Rx,0,8,27,BA,28,2D,27,10,03,00,
18101291,00000285,false,Rx,0,8,00,00,14,39,91,FE,0C,10,
18111291,00000285,false,Rx,0,8,00,00,14,39,91,FE,0C,10,
18121291,00000285,false,Rx,0,8,00,00,14,39,91,FE,0C,10,
18131291,00000285,false,Rx,0,8,00,00,14,39,91,FE,0C,10,
18156291,00000287,false,Rx,0,8,27,A7,28,0C,27,10,03,00,
18166291,00000287,false,Rx,0,8,27,A6,28,0B,27,10,03,00,
18176291,00000287,false,Rx,0,8,27,A6,28,0A,27,10,03,00,
18206291,00000285,false,Rx,0,8,00,00,14,39,91,FE,0C,10,
18216291,00000285,false,Rx,0,8,00,00,14,39,91,FE,0C,10,
18226291,00000285,false,Rx,0,8,00,00,14,39,91,FE,0C,10,
18236291,00000285,false,Rx,0,8,00,00,14,39,91,FE,0C,10,
18246291,00000285,false,Rx,0,8,00,00,14,39,91,FE,0C,10,
18256291,00000285,false,Rx,0,8,00,00,14,39,91,FE,0C,10,
18261291,00000287,false,Rx,0,8,27,A1,28,02,27,10,03,00,
18266291,00000285,false,Rx,0,8,00,00,14,39,91,FE,0C,10,
18271291,00000287,false,Rx,0,8,27,A1,28,02,27,10,03,00,
18281291,00000287,false,Rx,0,8,27,A1,28,02,27,10,03,00,
18291291,00000287,false,Rx,0,8,27,A1,28,02,27,10,03,00,
18301291,00000287,false,Rx,0,8,27,A0,28,01,27,10,03,00,
18321291,00000285,false,Rx,0,8,00,00,14,39,91,FE,0C,10,
18381291,00000286,false,Rx,0,8,00,00,00,3D,00,00,21,00,
18426291,00000285,false,Rx,0,8,00,00,14,39,91,FE,0C,10,
18436291,00000285,false,Rx,0,8,00,00,14,39,91,FE,0C,10,
18531291,00000285,false,Rx,0,8,00,00,14,39,91,FE,0C,10,
18541291,00000285,false,Rx,0,8,00,00,14,39,91,FE,0C,10,
18551291,00000285,false,Rx,0,8,00,00,14,39,91,FE,0C,10,
18561291,00000285,false,Rx,0,8,00,00,14,39,91,FE,0C,10,
18571291,00000285,false,Rx,0,8,00,00,14,39,91,FE,0C,10,
18586291,00000287,false,Rx,0,8,27,AC,28,15,27,10,03,00,
18611291,00000285,false,Rx,0,8,00,00,14,39,91,FE,0C,10,
18646291,00000285,false,Rx,0,8,00,00,14,39,91,FE,0C,10,
18656291,00000285,false,Rx,0,8,00,00,14,39,91,FE,0C,10,
18666291,00000285,false,Rx,0,8,00,00,14,39,91,FE,0C,10,
18676291,00000285,false,Rx,0,8,00,00,14,39,91,FE,0C,10,
18686291,00000285,false,Rx,0,8,00,00,14,39,91,FE,0C,10,
18726291,00000285,false,Rx,0,8,00,00,14,39,91,FE,0C,10,
18751291,00000285,false,Rx,0,8,00,00,14,39,91,FE,0C,10,
18756291,00000371,false,Rx,0,8,30,00,00,00,00,00,00,00,
18776291,00000371,false,Rx,0,8,30,00,00,00,00,00,00,00,
18806291,00000287,false,Rx,0,8,27,8C,27,DF,27,10,03,00,
18816291,00000287,false,Rx,0,8,27,8B,27,DE,27,10,03,00,
18856291,00000285,false,Rx,0,8,00,00,14,39,91,FE,0C,10,
18911291,00000287,false,Rx,0,8,27,89,27,DB,27,10,03,00,
18916291,00000286,false,Rx,0,8,00,00,00,3D,00,00,21,00,
18921291,00000287,false,Rx,0,8,27,89,27,DB,27,10,03,00,
18936291,00000286,false,Rx,0,8,00,00,00,3D,00,00,21,00,
19026291,00000287,false,Rx,0,8,27,88,27,D9,27,10,03,00,
19036291,00000287,false,Rx,0,8,27,88,27,D9,27,10,03,00,
19046291,00000287,false,Rx,0,8,27,88,27,D9,27,10,03,00,
19076291,00000285,false,Rx,0,8,00,00,14,39,91,FE,0C,10,
19086291,00000285,false,Rx,0,8,00,00,14,39,91,FE,0C,10,
19131291,00000287,false,Rx,0,8,27,78,27,BE,27,10,03,00,
19141291,00000287,false,Rx,0,8,27,77,27,BD,27,10,03,00,
19151291,00000287,false,Rx,0,8,27,77,27,BC,27,10,03,00,
19161291,00000287,false,Rx,0,8,27,76,27,BB,27,10,03,00,
19171291,00000287,false,Rx,0,8,27,74,27,B7,27,10,03,00,
19181291,00000285,false,Rx,0,8,00,00,14,39,91,FE,0C,10,
19236291,00000287,false,Rx,0,8,27,65,27,9E,27,10,03,00,
19291291,00000371,false,Rx,0,8,30,00,00,00,00,00,00,00,
19296291,00000285,false,Rx,0,8,00,00,14,39,91,FE,0C,10,
19306291,00000285,false,Rx,0,8,00,00,14,39,91,FE,0C,10,
19311291,00000371,false,Rx,0,8,30,00,00,00,00,00,00,00,
19316291,00000285,false,Rx,0,8,00,00,14,39,91,FE,0C,10,
19351291,00000287,false,Rx,0,8,27,4D,27,77,27,10,03,00,
19361291,00000287,false,Rx,0,8,27,48,27,6D,27,10,03,00,
19401291,00000285,false,Rx,0,8,00,00,14,39,91,FE,0C,10,
19411291,00000285,false,Rx,0,8,00,00,14,39,91,FE,0C,10,
19421291,00000285,false,Rx,0,8,00,00,14,39,91,FE,0C,10,
19431291,00000285,false,Rx,0,8,00,00,14,39,91,FE,0C,10,
19441291,00000285,false,Rx,0,8,00,00,14,39,91,FE,0C,10,
19456291,00000287,false,Rx,0,8,26,FE,27,00,27,10,03,00,
19466291,00000287,false,Rx,0,8,26,F9,26,FC,27,10,03,00,
19476291,00000287,false,Rx,0,8,26,F5,26,F8,27,10,03,00,
19486291,00000287,false,Rx,0,8,26,F3,26,F6,27,10,03,00,
19506291,00000285,false,Rx,0,8,00,00,14,39,91,FE,0C,10,
19516291,00000285,false,Rx,0,8,00,00,14,39,91,FE,0C,10,
19526291,00000285,false,Rx,0,8,00,00,14,39,91,FE,0C,10,
19561291,00000287,false,Rx,0,8,27,16,27,19,27,10,03,00,
19571291,00000287,false,Rx,0,8,27,1D,27,26,27,10,03,00,
19581291,00000287,false,Rx,0,8,27,26,27,35,27,10,03,00,
19591291,00000287,false,Rx,0,8,27,35,27,4D,27,10,03,00,
19601291,00000287,false,Rx,0,8,27,41,27,61,27,10,03,00,
19611291,00000287,false,Rx,0,8,27,4A,27,71,27,10,03,00,
19621291,00000285,false,Rx,0,8,00,00,14,39,91,FE,0C,10,
19726291,00000285,false,Rx,0,8,00,00,14,39,91,FE,0C,10,
19736291,00000285,false,Rx,0,8,00,00,14,39,91,FE,0C,10,
19756291,00000285,false,Rx,0,8,00,00,14,39,91,FE,0C,10,
19831291,00000285,false,Rx,0,8,00,00,14,39,91,FE,0C,10,
19841291,00000285,false,Rx,0,8,00,00,14,39,91,FE,0C,10,
19851291,00000285,false,Rx,0,8,00,00,14,39,91,FE,0C,10,
19871291,00000285,false,Rx,0,8,00,00,14,39,91,FE,0C,10,
19886291,00000287,false,Rx,0,8,27,70,27,B0,27,10,03,00,
19956291,00000285,false,Rx,0,8,00,00,14,39,91,FE,0C,10,
19976291,00000285,false,Rx,0,8,00,00,14,39,91,FE,0C,10,
19991291,00000287,false,Rx,0,8,27,6E,27,AD,27,10,03,00,
20001291,00000287,false,Rx,0,8,27,6E,27,AD,27,10,03,00,
20006291,00000286,false,Rx,0,8,00,00,00,3E,00,00,21,00,
20166291,00000285,false,Rx,0,8,00,00,14,39,91,FE,0C,10,
20211291,00000287,false,Rx,0,8,27,33,27,4A,27,10,03,00,
20221291,00000287,false,Rx,0,8,27,30,27,45,27,10,03,00,
20261291,00000285,false,Rx,0,8,00,00,14,39,91,FE,0C,10,
20316291,00000287,false,Rx,0,8,27,17,27,1C,27,10,03,00,
20326291,00000287,false,Rx,0,8,27,17,27,1B,27,10,03,00,
20336291,00000287,false,Rx,0,8,27,16,27,1A,27,10,03,00,
20346291,00000287,false,Rx,0,8,27,14,27,16,27,10,03,00,
20356291,00000287,false,Rx,0,8,27,12,27,14,27,10,03,00,
20376291,00000285,false,Rx,0,8,00,00,14,39,91,FE,0C,10,
20381291,00000371,false,Rx,0,8,30,00,00,00,00,00,00,00,
20421291,00000287,false,Rx,0,8,27,0A,27,0B,27,10,03,00,
20431291,00000287,false,Rx,0,8,27,0A,27,0B,27,10,03,00,
20441291,00000287,false,Rx,0,8,27,0A,27,0B,27,10,03,00,
20481291,00000285,false,Rx,0,8,00,00,14,39,91,FE,0C,10,
20536291,00000287,false,Rx,0,8,27,13,27,15,27,10,03,00,
20556291,00000287,false,Rx,0,8,27,19,27,1F,27,10,03,00,
20586291,00000285,false,Rx,0,8,00,00,14,39,91,FE,0C,10,
20596291,00000285,false,Rx,0,8,00,00,14,39,91,FE,0C,10,
20606291,00000285,false,Rx,0,8,00,00,14,39,91,FE,0C,10,
20616291,00000285,false,Rx,0,8,00,00,14,39,91,FE,0C,10,
20641291,00000287,false,Rx,0,8,27,40,27,61,27,10,03,00,
20651291,00000287,false,Rx,0,8,27,48,27,6E,27,10,03,00,
20661291,00000287,false,Rx,0,8,27,4E,27,78,27,10,03,00,
20671291,00000287,false,Rx,0,8,27,52,27,7F,27,10,03,00,
20691291,00000285,false,Rx,0,8,00,00,14,39,91,FE,0C,10,
20701291,00000285,false,Rx,0,8,00,00,14,39,91,FE,0C,10,
20711291,00000285,false,Rx,0,8,00,00,14,39,91,FE,0C,10,
20721291,00000285,false,Rx,0,8,00,00,14,39,91,FE,0C,10,
20741291,00000285,false,Rx,0,8,00,00,14,39,91,FE,0C,10,
20746291,00000287,false,Rx,0,8,27,6E,27,AD,27,10,03,00,
20756291,00000287,false,Rx,0,8,27,6F,27,AE,27,10,03,00,
20766291,00000287,false,Rx,0,8,27,70,27,B0,27,10,03,00,
20776291,00000287,false,Rx,0,8,27,71,27,B2,27,10,03,00,
20796291,00000287,false,Rx,0,8,27,72,27,B3,27,10,03,00,
20806291,00000285,false,Rx,0,8,00,00,14,39,91,FE,0C,10,
20851291,00000287,false,Rx,0,8,27,72,27,B4,27,10,03,00,
20861291,00000287,false,Rx,0,8,27,71,27,B3,27,10,03,00,
20881291,00000287,false,Rx,0,8,27,70,27,B1,27,10,03,00,
20901291,00000287,false,Rx,0,8,27,6F,27,AF,27,10,03,00,
20911291,00000285,false,Rx,0,8,00,00,14,39,91,FE,0C,10,
20916291,00000371,false,Rx,0,8,30,00,00,00,00,00,00,00,
20921291,00000285,false,Rx,0,8,00,00,14,39,91,FE,0C,10,
20931291,00000285,false,Rx,0,8,00,00,14,39,91,FE,0C,10,
21016291,00000285,false,Rx,0,8,00,00,14,39,91,FE,0C,10,
21026291,00000285,false,Rx,0,8,00,00,14,39,91,FE,0C,10,
21046291,00000285,false,Rx,0,8,00,00,14,39,91,FE,0C,10,
21066291,00000285,false,Rx,0,8,00,00,14,39,91,FE,0C,10,
21076291,00000286,false,Rx,0,8,00,00,00,3D,00,00,21,00,
21116291,00000286,false,Rx,0,8,00,00,00,3D,00,00,21,00,
21131291,00000285,false,Rx,0,8,00,00,14,39,91,FE,0C,10,
21151291,00000285,false,Rx,0,8,00,00,14,39,91,FE,0C,10,
21171291,00000285,false,Rx,0,8,00,00,14,39,91,FE,0C,10,
21176291,00000287,false,Rx,0,8,27,4A,27,70,27,10,03,00,
21341291,00000285,false,Rx,0,8,00,00,14,39,91,FE,0C,10,
21396291,00000287,false,Rx,0,8,27,31,27,48,27,10,03,00,
21451291,00000371,false,Rx,0,8,30,00,00,00,00,00,00,00,
21501291,00000287,false,Rx,0,8,27,26,27,34,27,10,03,00,
21511291,00000287,false,Rx,0,8,27,18,27,1E,27,10,03,00,
21521291,00000287,false,Rx,0,8,27,02,27,03,27,10,03,00,
21551291,00000285,false,Rx,0,8,00,00,14,39,91,FE,0C,10,
21561291,00000285,false,Rx,0,8,00,00,14,39,91,FE,0C,10,
21606291,00000287,false,Rx,0,8,26,9F,26,AE,27,10,03,00,
21611291,00000286,false,Rx,0,8,00,00,00,3D,00,00,21,00,
21616291,00000287,false,Rx,0,8,26,9D,26,AD,27,10,03,00,
21626291,00000287,false,Rx,0,8,26,9D,26,AC,27,10,03,00,
21646291,00000287,false,Rx,0,8,26,9C,26,AB,27,10,03,00,
21711291,00000287,false,Rx,0,8,26,9B,26,AA,27,10,03,00,
21751291,00000287,false,Rx,0,8,26,9B,26,AA,27,10,03,00,
21761291,00000285,false,Rx,0,8,00,00,14,39,91,FE,0C,10,
21771291,00000285,false,Rx,0,8,00,00,14,39,91,FE,0C,10,
21781291,00000285,false,Rx,0,8,00,00,14,39,91,FE,0C,10,
21816291,00000287,false,Rx,0,8,26,9B,26,AA,27,10,03,00,
21826291,00000287,false,Rx,0,8,26,9B,26,AA,27,10,03,00,
21846291,00000287,false,Rx,0,8,26,9C,26,A8,27,10,03,00,
21866291,00000287,false,Rx,0,8,26,9D,26,A8,27,10,03,00,
21876291,00000285,false,Rx,0,8,00,00,14,39,91,FE,0C,10,
21886291,00000285,false,Rx,0,8,00,00,14,39,91,FE,0C,10,
21896291,00000285,false,Rx,0,8,00,00,14,39,91,FE,0C,10,
21906291,00000285,false,Rx,0,8,00,00,14,39,91,FE,0C,10,
21921291,00000287,false,Rx,0,8,26,9B,26,AA,27,10,03,00,
21931291,00000287,false,Rx,0,8,26,9B,26,AA,27,10,03,00,
21941291,00000287,false,Rx,0,8,26,9B,26,AA,27,10,03,00,
21951291,00000287,false,Rx,0,8,26,9B,26,AA,27,10,03,00,
21961291,00000287,false,Rx,0,8,26,9B,26,AA,27,10,03,00,
21971291,00000287,false,Rx,0,8,26,9B,26,AA,27,10,03,00,
21981291,00000285,false,Rx,0,8,00,00,14,39,91,FE,0C,10,
22036291,00000287,false,Rx,0,8,26,9B,26,AA,27,10,03,00,
22046291,00000287,false,Rx,0,8,26,9B,26,AA,27,10,03,00,
22056291,00000287,false,Rx,0,8,26,9B,26,AA,27,10,03,00,
22066291,00000287,false,Rx,0,8,26,9B,26,AA,27,10,03,00,
22076291,00000287,false,Rx,0,8,26,9B,26,AA,27,10,03,00,
22086291,00000285,false,Rx,0,8,00,00,14,39,91,FE,0C,10,
22106291,00000285,false,Rx,0,8,00,00,14,39,91,FE,0C,10,
22141291,00000287,false,Rx,0,8,26,D8,26,E0,27,10,03,00,
22146291,00000286,false,Rx,0,8,00,00,00,3D,00,00,21,00,
22166291,00000286,false,Rx,0,8,00,00,00,3D,00,00,21,00,
22201291,00000285,false,Rx,0,8,00,00,14,39,91,FE,0C,10,
22211291,00000285,false,Rx,0,8,00,00,14,39,91,FE,0C,10,
22221291,00000285,false,Rx,0,8,00,00,14,39,91,FE,0C,10,
22231291,00000285,false,Rx,0,8,00,00,14,39,91,FE,0C,10,
22241291,00000285,false,Rx,0,8,00,00,14,39,91,FE,0C,10,
22246291,00000287,false,Rx,0,8,27,47,27,5B,27,10,03,00,
22256291,00000287,false,Rx,0,8,27,47,27,5C,27,10,03,00,
22306291,00000285,false,Rx,0,8,00,00,14,39,91,FE,0C,10,
22316291,00000285,false,Rx,0,8,00,00,14,39,91,FE,0C,10,
22326291,00000285,false,Rx,0,8,00,00,14,39,91,FE,0C,10,
22336291,00000285,false,Rx,0,8,00,00,14,39,91,FE,0C,10,
22356291,00000285,false,Rx,0,8,00,00,14,39,91,FE,0C,10,
22411291,00000285,false,Rx,0,8,00,00,14,39,91,FE,0C,10,
22421291,00000285,false,Rx,0,8,00,00,14,39,91,FE,0C,10,
22466291,00000287,false,Rx,0,8,27,53,27,4C,27,10,03,00,
22476291,00000287,false,Rx,0,8,27,53,27,4C,27,10,03,00,
22521291,00000371,false,Rx,0,8,30,00,00,00,00,00,00,00,
22541291,00000371,false,Rx,0,8,30,00,00,00,00,00,00,00,
22561291,00000371,false,Rx,0,8,30,00,00,00,00,00,00,00,
22631291,00000285,false,Rx,0,8,00,00,14,39,91,FE,0C,10,
22686291,00000287,false,Rx,0,8,27,52,27,4B,27,10,03,00,
22696291,00000287,false,Rx,0,8,27,52,27,4B,27,10,03,00,
22736291,00000285,false,Rx,0,8,00,00,14,39,91,FE,0C,10,
22791291,00000287,false,Rx,0,8,27,56,27,4E,27,10,03,00,
22801291,00000287,false,Rx,0,8,27,56,27,4F,27,10,03,00,
22811291,00000287,false,Rx,0,8,27,56,27,4F,27,10,03,00,
22821291,00000287,false,Rx,0,8,27,56,27,4F,27,10,03,00,
22831291,00000287,false,Rx,0,8,27,56,27,4E,27,10,03,00,
22851291,00000285,false,Rx,0,8,00,00,14,39,91,FE,0C,10,
22861291,00000285,false,Rx,0,8,00,00,14,39,91,FE,0C,10,
22956291,00000285,false,Rx,0,8,00,00,14,39,91,FE,0C,10,
23011291,00000287,false,Rx,0,8,27,1D,27,1F,27,10,03,00,
23021291,00000287,false,Rx,0,8,27,1A,27,1C,27,10,03,00,
23031291,00000287,false,Rx,0,8,27,19,27,1B,27,10,03,00,
23061291,00000285,false,Rx,0,8,00,00,14,39,91,FE,0C,10,
23071291,00000285,false,Rx,0,8,00,00,14,39,91,FE,0C,10,
23081291,00000285,false,Rx,0,8,00,00,14,39,91,FE,0C,10,
23116291,00000287,false,Rx,0,8,27,1A,27,1E,27,10,03,00,
23126291,00000287,false,Rx,0,8,27,26,27,2F,27,10,03,00,
23136291,00000287,false,Rx,0,8,27,2E,27,3B,27,10,03,00,
23156291,00000287,false,Rx,0,8,27,37,27,4A,27,10,03,00,
23176291,00000285,false,Rx,0,8,00,00,14,39,91,FE,0C,10,
23221291,00000287,false,Rx,0,8,27,3E,27,5B,27,10,03,00,
23231291,00000287,false,Rx,0,8,27,3D,27,5B,27,10,03,00,
23241291,00000287,false,Rx,0,8,27,3C,27,5A,27,10,03,00,
23251291,00000287,false,Rx,0,8,27,3B,27,58,27,10,03,00,
23271291,00000287,false,Rx,0,8,27,38,27,54,27,10,03,00,
23281291,00000285,false,Rx,0,8,00,00,14,39,91,FE,0C,10,
23291291,00000285,false,Rx,0,8,00,00,14,39,91,FE,0C,10,
23326291,00000287,false,Rx,0,8,27,3B,27,57,27,10,03,00,
23331291,00000285,false,Rx,0,8,00,00,14,39,91,FE,0C,10,
23386291,00000285,false,Rx,0,8,00,00,14,39,91,FE,0C,10,
23396291,00000285,false,Rx,0,8,00,00,14,39,91,FE,0C,10,
23416291,00000285,false,Rx,0,8,00,00,14,39,91,FE,0C,10,
23441291,00000287,false,Rx,0,8,27,75,27,B9,27,10,03,00,
23501291,00000285,false,Rx,0,8,00,00,14,39,91,FE,0C,10,
23511291,00000285,false,Rx,0,8,00,00,14,39,91,FE,0C,10,
23521291,00000285,false,Rx,0,8,00,00,14,39,91,FE,0C,10,
23531291,00000285,false,Rx,0,8,00,00,14,39,91,FE,0C,10,
23541291,00000285,false,Rx,0,8,00,00,14,39,91,FE,0C,10,
23561291,00000285,false,Rx,0,8,00,00,14,39,91,FE,0C,10,
23606291,00000285,false,Rx,0,8,00,00,14,39,91,FE,0C,10,
23611291,00000371,false,Rx,0,8,30,00,00,00,00,00,00,00,
23661291,00000287,false,Rx,0,8,27,5D,27,90,27,10,03,00,
23766291,00000287,false,Rx,0,8,27,5D,27,91,27,10,03,00,
23771291,00000286,false,Rx,0,8,00,00,00,3D,00,00,21,00,
23776291,00000287,false,Rx,0,8,27,5E,27,92,27,10,03,00,
23786291,00000287,false,Rx,0,8,27,5E,27,93,27,10,03,00,
23791291,00000286,false,Rx,0,8,00,00,00,3D,00,00,21,00,
23811291,00000286,false,Rx,0,8,00,00,00,3D,00,00,21,00,
23826291,00000285,false,Rx,0,8,00,00,14,39,91,FE,0C,10,
23851291,00000286,false,Rx,0,8,00,00,00,3D,00,00,21,00,
23871291,00000287,false,Rx,0,8,27,66,27,A0,27,10,03,00,
23931291,00000285,false,Rx,0,8,00,00,14,39,91,FE,0C,10,
23986291,00000287,false,Rx,0,8,27,6B,27,A8,27,10,03,00,
23996291,00000287,false,Rx,0,8,27,6A,27,A7,27,10,03,00,
24006291,00000287,false,Rx,0,8,27,6A,27,A7,27,10,03,00,
24036291,00000285,false,Rx,0,8,00,00,14,39,91,FE,0C,10,
24046291,00000285,false,Rx,0,8,00,00,14,39,91,FE,0C,10,
24091291,00000287,false,Rx,0,8,27,5A,27,8B,27,10,03,00,
24146291,00000371,false,Rx,0,8,30,00,00,00,00,00,00,00,
24166291,00000371,false,Rx,0,8,30,00,00,00,00,00,00,00,
24186291,00000371,false,Rx,0,8,30,00,00,00,00,00,00,00,
24196291,00000287,false,Rx,0,8,27,56,27,85,27,10,03,00,
24206291,00000287,false,Rx,0,8,27,55,27,84,27,10,03,00,
24216291,00000287,false,Rx,0,8,27,55,27,84,27,10,03,00,
24256291,00000285,false,Rx,0,8,00,00,14,39,91,FE,0C,10,
24266291,00000285,false,Rx,0,8,00,00,14,39,91,FE,0C,10,
24306291,00000286,false,Rx,0,8,00,00,00,3D,00,00,21,00,
24311291,00000287,false,Rx,0,8,27,4B,27,73,27,10,03,00,
24321291,00000287,false,Rx,0,8,27,4B,27,72,27,10,03,00,
24341291,00000287,false,Rx,0,8,27,49,27,70,27,10,03,00,
24361291,00000285,false,Rx,0,8,00,00,14,39,91,FE,0C,10,
24371291,00000285,false,Rx,0,8,00,00,14,39,91,FE,0C,10,
24416291,00000287,false,Rx,0,8,27,32,27,48,27,10,03,00,
24426291,00000287,false,Rx,0,8,27,30,27,45,27,10,03,00,
24436291,00000287,false,Rx,0,8,27,2E,27,42,27,10,03,00,
24446291,00000287,false,Rx,0,8,27,2D,27,40,27,10,03,00,
24466291,00000285,false,Rx,0,8,00,00,14,39,91,FE,0C,10,
24476291,00000285,false,Rx,0,8,00,00,14,39,91,FE,0C,10,
24486291,00000285,false,Rx,0,8,00,00,14,39,91,FE,0C,10,
24571291,00000285,false,Rx,0,8,00,00,14,39,91,FE,0C,10,
24581291,00000285,false,Rx,0,8,00,00,14,39,91,FE,0C,10,
24591291,00000285,false,Rx,0,8,00,00,14,39,91,FE,0C,10,
24601291,00000285,false,Rx,0,8,00,00,14,39,91,FE,0C,10,
24626291,00000287,false,Rx,0,8,27,2E,27,43,27,10,03,00,
24681291,00000371,false,Rx,0,8,30,00,00,00,00,00,00,00,
24686291,00000285,false,Rx,0,8,00,00,14,39,91,FE,0C,10,
24696291,00000285,false,Rx,0,8,00,00,14,39,91,FE,0C,10,
24706291,00000285,false,Rx,0,8,00,00,14,39,91,FE,0C,10,
24726291,00000285,false,Rx,0,8,00,00,14,39,91,FE,0C,10,
24731291,00000287,false,Rx,0,8,27,42,27,63,27,10,03,00,
24791291,00000285,false,Rx,0,8,00,00,14,39,91,FE,0C,10,
24801291,00000285,false,Rx,0,8,00,00,14,39,91,FE,0C,10,
24841291,00000286,false,Rx,0,8,00,00,00,3D,00,00,21,00,
24846291,00000287,false,Rx,0,8,27,6A,27,A7,27,10,03,00,
24861291,00000286,false,Rx,0,8,00,00,00,3D,00,00,21,00,
24896291,00000285,false,Rx,0,8,00,00,14,39,91,FE,0C,10,
24951291,00000287,false,Rx,0,8,27,7C,27,C4,27,10,03,00,
24961291,00000287,false,Rx,0,8,27,7D,27,C6,27,10,03,00,
25011291,00000285,false,Rx,0,8,00,00,14,39,91,FE,0C,10,
25056291,00000287,false,Rx,0,8,27,85,27,D3,27,10,03,00,
25076291,00000287,false,Rx,0,8,27,87,27,D7,27,10,03,00,
25116291,00000285,false,Rx,0,8,00,00,14,39,91,FE,0C,10,
25171291,00000287,false,Rx,0,8,27,8F,27,E4,27,10,03,00,
25181291,00000287,false,Rx,0,8,27,91,27,E7,27,10,03,00,
25221291,00000285,false,Rx,0,8,00,00,14,39,91,FE,0C,10,
25236291,00000371,false,Rx,0,8,30,00,00,00,00,00,00,00,
25256291,00000371,false,Rx,0,8,30,00,00,00,00,00,00,00,
25276291,00000287,false,Rx,0,8,27,93,27,EB,27,10,03,00,
25346291,00000285,false,Rx,0,8,00,00,14,39,91,FE,0C,10,
25391291,00000287,false,Rx,0,8,27,91,27,E7,27,10,03,00,
25401291,00000287,false,Rx,0,8,27,90,27,E7,27,10,03,00,
25441291,00000285,false,Rx,0,8,00,00,14,39,91,FE,0C,10,
25496291,00000287,false,Rx,0,8,27,8F,27,E4,27,10,03,00,
25506291,00000287,false,Rx,0,8,27,8E,27,E3,27,10,03,00,
25516291,00000287,false,Rx,0,8,27,8E,27,E3,27,10,03,00,
25526291,00000287,false,Rx,0,8,27,8E,27,E3,27,10,03,00,
25536291,00000287,false,Rx,0,8,27,8E,27,E3,27,10,03,00,
25556291,00000285,false,Rx,0,8,00,00,14,39,91,FE,0C,10,
25566291,00000285,false,Rx,0,8,00,00,14,39,91,FE,0C,10,
25576291,00000285,false,Rx,0,8,00,00,14,39,91,FE,0C,10,
25611291,00000287,false,Rx,0,8,27,8E,27,E2,27,10,03,00,
25621291,00000287,false,Rx,0,8,27,8E,27,E2,27,10,03,00,
25631291,00000287,false,Rx,0,8,27,8E,27,E3,27,10,03,00,
25641291,00000287,false,Rx,0,8,27,8F,27,E4,27,10,03,00,
25651291,00000287,false,Rx,0,8,27,91,27,E7,27,10,03,00,
25661291,00000285,false,Rx,0,8,00,00,14,39,91,FE,0C,10,
25671291,00000285,false,Rx,0,8,00,00,14,39,91,FE,0C,10,
25681291,00000285,false,Rx,0,8,00,00,14,39,91,FE,0C,10,
25766291,00000285,false,Rx,0,8,00,00,14,39,91,FE,0C,10,
25771291,00000371,false,Rx,0,8,30,00,00,00,00,00,00,00,
25776291,00000285,false,Rx,0,8,00,00,14,39,91,FE,0C,10,
25786291,00000285,false,Rx,0,8,00,00,14,39,91,FE,0C,10,
25796291,00000285,false,Rx,0,8,00,00,14,39,91,FE,0C,10,
25821291,00000287,false,Rx,0,8,27,B1,28,1E,27,10,03,00,
25831291,00000287,false,Rx,0,8,27,AF,28,1A,27,10,03,00,
25836291,00000285,false,Rx,0,8,00,00,14,39,91,FE,0C,10,
25881291,00000285,false,Rx,0,8,00,00,14,39,91,FE,0C,10,
25891291,00000285,false,Rx,0,8,00,00,14,39,91,FE,0C,10,
25901291,00000285,false,Rx,0,8,00,00,14,39,91,FE,0C,10,
25911291,00000285,false,Rx,0,8,00,00,14,39,91,FE,0C,10,
25921291,00000285,false,Rx,0,8,00,00,14,39,91,FE,0C,10,
25931291,00000286,false,Rx,0,8,00,00,00,3D,00,00,21,00,
25936291,00000287,false,Rx,0,8,27,A9,28,0F,27,10,03,00,
25951291,00000286,false,Rx,0,8,00,00,00,3D,00,00,21,00,
25986291,00000285,false,Rx,0,8,00,00,14,39,91,FE,0C,10,
25996291,00000285,false,Rx,0,8,00,00,14,39,91,FE,0C,10,
26016291,00000285,false,Rx,0,8,00,00,14,39,91,FE,0C,10,
26041291,00000287,false,Rx,0,8,27,A9,28,10,27,10,03,00,
26101291,00000285,false,Rx,0,8,00,00,14,39,91,FE,0C,10,
26146291,00000287,false,Rx,0,8,27,AA,28,11,27,10,03,00,
26251291,00000287,false,Rx,0,8,27,AC,28,15,27,10,03,00,
26271291,00000287,false,Rx,0,8,27,AC,28,15,27,10,03,00,
26306291,00000371,false,Rx,0,8,30,00,00,00,00,00,00,00,
26311291,00000285,false,Rx,0,8,00,00,14,39,91,FE,0C,10,
26326291,00000371,false,Rx,0,8,30,00,00,00,00,00,00,00,
26416291,00000285,false,Rx,0,8,00,00,14,39,91,FE,0C,10,
26426291,00000285,false,Rx,0,8,00,00,14,39,91,FE,0C,10,
26466291,00000286,false,Rx,0,8,00,00,00,3D,00,00,21,00,
26471291,00000287,false,Rx,0,8,27,AE,28,18,27,10,03,00,
26481291,00000287,false,Rx,0,8,27,AE,28,18,27,10,03,00,
26486291,00000286,false,Rx,0,8,00,00,00,3D,00,00,21,00,
26521291,00000285,false,Rx,0,8,00,00,14,39,91,FE,0C,10,
26531291,00000285,false,Rx,0,8,00,00,14,39,91,FE,0C,10,
26576291,00000287,false,Rx,0,8,27,B0,28,1B,27,10,03,00,
26586291,00000287,false,Rx,0,8,27,B0,28,1C,27,10,03,00,
26691291,00000287,false,Rx,0,8,27,B1,28,1E,27,10,03,00,
26701291,00000287,false,Rx,0,8,27,B1,28,1D,27,10,03,00,
26711291,00000287,false,Rx,0,8,27,B1,28,1D,27,10,03,00,
26721291,00000287,false,Rx,0,8,27,B1,28,1D,27,10,03,00,
26741291,00000285,false,Rx,0,8,00,00,14,39,91,FE,0C,10,
26796291,00000287,false,Rx,0,8,27,B2,28,1E,27,10,03,00,
26806291,00000287,false,Rx,0,8,27,B2,28,1F,27,10,03,00,
26816291,00000287,false,Rx,0,8,27,B2,28,1F,27,10,03,00,
26826291,00000287,false,Rx,0,8,27,B2,28,1E,27,10,03,00,
26836291,00000287,false,Rx,0,8,27,B2,28,1E,27,10,03,00,
26841291,00000371,false,Rx,0,8,30,00,00,00,00,00,00,00,
26846291,00000285,false,Rx,0,8,00,00,14,39,91,FE,0C,10,
26961291,00000285,false,Rx,0,8,00,00,14,39,91,FE,0C,10,
26971291,00000285,false,Rx,0,8,00,00,14,39,91,FE,0C,10,
26981291,00000285,false,Rx,0,8,00,00,14,39,91,FE,0C,10,
26991291,00000285,false,Rx,0,8,00,00,14,39,91,FE,0C,10,
27006291,00000287,false,Rx,0,8,27,B3,28,20,27,10,03,00,
27016291,00000287,false,Rx,0,8,27,B2,28,20,27,10,03,00,
27026291,00000287,false,Rx,0,8,27,B2,28,20,27,10,03,00,
27066291,00000285,false,Rx,0,8,00,00,14,39,91,FE,0C,10,
27086291,00000285,false,Rx,0,8,00,00,14,39,91,FE,0C,10,
27106291,00000285,false,Rx,0,8,00,00,14,39,91,FE,0C,10,
27171291,00000285,false,Rx,0,8,00,00,14,39,91,FE,0C,10,
27181291,00000285,false,Rx,0,8,00,00,14,39,91,FE,0C,10,
27191291,00000285,false,Rx,0,8,00,00,14,39,91,FE,0C,10,
27226291,00000287,false,Rx,0,8,27,AC,28,15,27,10,03,00,
27236291,00000287,false,Rx,0,8,27,AD,28,16,27,10,03,00,
27276291,00000285,false,Rx,0,8,00,00,14,39,91,FE,0C,10,
27286291,00000285,false,Rx,0,8,00,00,14,39,91,FE,0C,10,
27331291,00000287,false,Rx,0,8,27,AC,28,15,27,10,03,00,
27391291,00000285,false,Rx,0,8,00,00,14,39,91,FE,0C,10,
27396291,00000371,false,Rx,0,8,30,00,00,00,00,00,00,00,
27411291,00000285,false,Rx,0,8,00,00,14,39,91,FE,0C,10,
27436291,00000287,false,Rx,0,8,27,AA,28,12,27,10,03,00,
27446291,00000287,false,Rx,0,8,27,A8,28,0E,27,10,03,00,
27496291,00000285,false,Rx,0,8,00,00,14,39,91,FE,0C,10,
27506291,00000285,false,Rx,0,8,00,00,14,39,91,FE,0C,10,
27551291,00000287,false,Rx,0,8,27,95,27,EF,27,10,03,00,
27561291,00000287,false,Rx,0,8,27,94,27,ED,27,10,03,00,
27601291,00000285,false,Rx,0,8,00,00,14,39,91,FE,0C,10,
27656291,00000287,false,Rx,0,8,27,90,27,E5,27,10,03,00,
27666291,00000287,false,Rx,0,8,27,8E,27,E3,27,10,03,00,
27716291,00000285,false,Rx,0,8,00,00,14,39,91,FE,0C,10,
27771291,00000287,false,Rx,0,8,27,6D,27,AC,27,10,03,00,
27821291,00000285,false,Rx,0,8,00,00,14,39,91,FE,0C,10,
27831291,00000285,false,Rx,0,8,00,00,14,39,91,FE,0C,10,
27841291,00000285,false,Rx,0,8,00,00,14,39,91,FE,0C,10,
27876291,00000287,false,Rx,0,8,27,47,27,6B,27,10,03,00,
27886291,00000287,false,Rx,0,8,27,42,27,63,27,10,03,00,
27896291,00000287,false,Rx,0,8,27,3D,27,5B,27,10,03,00,
27926291,00000285,false,Rx,0,8,00,00,14,39,91,FE,0C,10,
27931291,00000371,false,Rx,0,8,30,00,00,00,00,00,00,00,
27981291,00000287,false,Rx,0,8,27,24,27,31,27,10,03,00,
28001291,00000287,false,Rx,0,8,27,1C,27,24,27,10,03,00,
28021291,00000287,false,Rx,0,8,27,17,27,1B,27,10,03,00,
28031291,00000285,false,Rx,0,8,00,00,14,39,91,FE,0C,10,
28091291,00000286,false,Rx,0,8,00,00,00,3D,00,00,21,00,
28096291,00000287,false,Rx,0,8,27,11,27,12,27,10,03,00,
28136291,00000285,false,Rx,0,8,00,00,14,39,91,FE,0C,10,
28146291,00000285,false,Rx,0,8,00,00,14,39,91,FE,0C,10,
28156291,00000285,false,Rx,0,8,00,00,14,39,91,FE,0C,10,
28191291,00000287,false,Rx,0,8,27,19,27,1F,27,10,03,00,
28201291,00000287,false,Rx,0,8,27,19,27,1F,27,10,03,00,
28251291,00000285,false,Rx,0,8,00,00,14,39,91,FE,0C,10,
28261291,00000285,false,Rx,0,8,00,00,14,39,91,FE,0C,10,
28271291,00000285,false,Rx,0,8,00,00,14,39,91,FE,0C,10,
28281291,00000285,false,Rx,0,8,00,00,14,39,91,FE,0C,10,
28291291,00000285,false,Rx,0,8,00,00,14,39,91,FE,0C,10,
28301291,00000285,false,Rx,0,8,00,00,14,39,91,FE,0C,10,
28316291,00000287,false,Rx,0,8,27,08,27,09,27,10,03,00,
28356291,00000285,false,Rx,0,8,00,00,14,39,91,FE,0C,10,
28376291,00000285,false,Rx,0,8,00,00,14,39,91,FE,0C,10,
28411291,00000287,false,Rx,0,8,27,19,27,1E,27,10,03,00,
28461291,00000285,false,Rx,0,8,00,00,14,39,91,FE,0C,10,
28466291,00000371,false,Rx,0,8,30,00,00,00,00,00,00,00,
28471291,00000285,false,Rx,0,8,00,00,14,39,91,FE,0C,10,
28486291,00000371,false,Rx,0,8,30,00,00,00,00,00,00,00,
28516291,00000287,false,Rx,0,8,27,1D,27,26,27,10,03,00,
28586291,00000285,false,Rx,0,8,00,00,14,39,91,FE,0C,10,
28606291,00000285,false,Rx,0,8,00,00,14,39,91,FE,0C,10,
28626291,00000286,false,Rx,0,8,00,00,00,3D,00,00,21,00,
28681291,00000285,false,Rx,0,8,00,00,14,39,91,FE,0C,10,
28746291,00000287,false,Rx,0,8,27,14,27,17,27,10,03,00,
28851291,00000287,false,Rx,0,8,27,0D,27,0D,27,10,03,00,
28911291,00000285,false,Rx,0,8,00,00,14,39,91,FE,0C,10,
28956291,00000287,false,Rx,0,8,27,12,27,14,27,10,03,00,
29016291,00000285,false,Rx,0,8,00,00,14,39,91,FE,0C,10,
29061291,00000287,false,Rx,0,8,27,05,27,06,27,10,03,00,
29071291,00000287,false,Rx,0,8,27,02,27,04,27,10,03,00,
29081291,00000287,false,Rx,0,8,27,00,27,02,27,10,03,00,
29091291,00000287,false,Rx,0,8,26,FE,27,00,27,10,03,00,
29121291,00000285,false,Rx,0,8,00,00,14,39,91,FE,0C,10,
29176291,00000287,false,Rx,0,8,26,F7,26,FB,27,10,03,00,
29186291,00000287,false,Rx,0,8,26,F8,26,FB,27,10,03,00,
29196291,00000287,false,Rx,0,8,26,F7,26,FA,27,10,03,00,
29216291,00000287,false,Rx,0,8,26,F8,26,FB,27,10,03,00,
29226291,00000285,false,Rx,0,8,00,00,14,39,91,FE,0C,10,
29341291,00000285,false,Rx,0,8,00,00,14,39,91,FE,0C,10,
29351291,00000285,false,Rx,0,8,00,00,14,39,91,FE,0C,10,
29396291,00000287,false,Rx,0,8,27,01,27,03,27,10,03,00,
29406291,00000287,false,Rx,0,8,27,03,27,05,27,10,03,00,
29446291,00000285,false,Rx,0,8,00,00,14,39,91,FE,0C,10,
29456291,00000285,false,Rx,0,8,00,00,14,39,91,FE,0C,10,
29466291,00000285,false,Rx,0,8,00,00,14,39,91,FE,0C,10,
29476291,00000285,false,Rx,0,8,00,00,14,39,91,FE,0C,10,
29486291,00000285,false,Rx,0,8,00,00,14,39,91,FE,0C,10,
29511291,00000287,false,Rx,0,8,27,0D,27,0E,27,10,03,00,
29551291,00000285,false,Rx,0,8,00,00,14,39,91,FE,0C,10,
29561291,00000285,false,Rx,0,8,00,00,14,39,91,FE,0C,10,
29571291,00000285,false,Rx,0,8,00,00,14,39,91,FE,0C,10,
29606291,00000287,false,Rx,0,8,27,0B,27,0C,27,10,03,00,
29666291,00000285,false,Rx,0,8,00,00,14,39,91,FE,0C,10,
29716291,00000286,false,Rx,0,8,00,00,00,3D,00,00,21,00,
29721291,00000287,false,Rx,0,8,27,0D,27,0D,27,10,03,00,
29736291,00000286,false,Rx,0,8,00,00,00,3D,00,00,21,00,
29741291,00000287,false,Rx,0,8,27,13,27,15,27,10,03,00,
29756291,00000286,false,Rx,0,8,00,00,00,3D,00,00,21,00,
29771291,00000285,false,Rx,0,8,00,00,14,39,91,FE,0C,10,
29781291,00000285,false,Rx,0,8,00,00,14,39,91,FE,0C,10,
29791291,00000285,false,Rx,0,8,00,00,14,39,91,FE,0C,10,
29801291,00000285,false,Rx,0,8,00,00,14,39,91,FE,0C,10,
29826291,00000287,false,Rx,0,8,26,FE,27,01,27,10,03,00,
29836291,00000287,false,Rx,0,8,26,FD,27,00,27,10,03,00,
29886291,00000285,false,Rx,0,8,00,00,14,39,91,FE,0C,10,
29941291,00000287,false,Rx,0,8,27,1B,27,23,27,10,03,00,
29991291,00000285,false,Rx,0,8,00,00,14,39,91,FE,0C,10,
30046291,00000287,false,Rx,0,8,27,23,27,31,27,10,03,00,
30066291,00000287,false,Rx,0,8,27,24,27,32,27,10,03,00,
30096291,00000285,false,Rx,0,8,00,00,14,39,91,FE,0C,10,
30111291,00000371,false,Rx,0,8,30,00,00,00,00,00,00,00,
30131291,00000371,false,Rx,0,8,30,00,00,00,00,00,00,00,
30151291,00000287,false,Rx,0,8,27,28,27,38,27,10,03,00,
30266291,00000287,false,Rx,0,8,27,37,27,51,27,10,03,00,
30276291,00000287,false,Rx,0,8,27,37,27,52,27,10,03,00,
30286291,00000287,false,Rx,0,8,27,38,27,52,27,10,03,00,
30316291,00000285,false,Rx,0,8,00,00,14,39,91,FE,0C,10,
30336291,00000285,false,Rx,0,8,00,00,14,39,91,FE,0C,10,
30371291,00000287,false,Rx,0,8,27,47,27,6D,27,10,03,00,
30381291,00000287,false,Rx,0,8,27,4B,27,72,27,10,03,00,
30391291,00000287,false,Rx,0,8,27,4C,27,75,27,10,03,00,
30401291,00000287,false,Rx,0,8,27,4E,27,77,27,10,03,00,
30411291,00000287,false,Rx,0,8,27,4E,27,78,27,10,03,00,
30536291,00000285,false,Rx,0,8,00,00,14,39,91,FE,0C,10,
30546291,00000285,false,Rx,0,8,00,00,14,39,91,FE,0C,10,
30591291,00000287,false,Rx,0,8,27,5B,27,8D,27,10,03,00,
30601291,00000287,false,Rx,0,8,27,5B,27,8D,27,10,03,00,
30641291,00000285,false,Rx,0,8,00,00,14,39,91,FE,0C,10,
30646291,00000371,false,Rx,0,8,30,00,00,00,00,00,00,00,
30651291,00000285,false,Rx,0,8,00,00,14,39,91,FE,0C,10,
30661291,00000285,false,Rx,0,8,00,00,14,39,91,FE,0C,10,
30671291,00000285,false,Rx,0,8,00,00,14,39,91,FE,0C,10,
30681291,00000285,false,Rx,0,8,00,00,14,39,91,FE,0C,10,
30696291,00000287,false,Rx,0,8,27,63,27,9B,27,10,03,00,
30706291,00000287,false,Rx,0,8,27,64,27,9D,27,10,03,00,
30716291,00000287,false,Rx,0,8,27,66,27,A0,27,10,03,00,
30726291,00000287,false,Rx,0,8,27,67,27,A2,27,10,03,00,
30746291,00000285,false,Rx,0,8,00,00,14,39,91,FE,0C,10,
30756291,00000285,false,Rx,0,8,00,00,14,39,91,FE,0C,10,
30766291,00000285,false,Rx,0,8,00,00,14,39,91,FE,0C,10,
30796291,00000285,false,Rx,0,8,00,00,14,39,91,FE,0C,10,
30806291,00000286,false,Rx,0,8,00,00,00,3D,00,00,21,00,
30861291,00000285,false,Rx,0,8,00,00,14,39,91,FE,0C,10,
30871291,00000285,false,Rx,0,8,00,00,14,39,91,FE,0C,10,
30966291,00000285,false,Rx,0,8,00,00,14,39,91,FE,0C,10,
30976291,00000285,false,Rx,0,8,00,00,14,39,91,FE,0C,10,
30986291,00000285,false,Rx,0,8,00,00,14,39,91,FE,0C,10,
30996291,00000285,false,Rx,0,8,00,00,14,39,91,FE,0C,10,
31021291,00000287,false,Rx,0,8,27,69,27,A4,27,10,03,00,
31091291,00000285,false,Rx,0,8,00,00,14,39,91,FE,0C,10,
31111291,00000285,false,Rx,0,8,00,00,14,39,91,FE,0C,10,
31186291,00000285,false,Rx,0,8,00,00,14,39,91,FE,0C,10,
31201291,00000371,false,Rx,0,8,30,00,00,00,00,00,00,00,
31241291,00000287,false,Rx,0,8,27,7B,27,C3,27,10,03,00,
31261291,00000287,false,Rx,0,8,27,76,27,BA,27,10,03,00,
31291291,00000285,false,Rx,0,8,00,00,14,39,91,FE,0C,10,
31361291,00000286,false,Rx,0,8,00,00,00,3D,00,00,21,00,
31381291,00000286,false,Rx,0,8,00,00,00,3D,00,00,21,00,
31401291,00000286,false,Rx,0,8,00,00,00,3D,00,00,21,00,
31406291,00000285,false,Rx,0,8,00,00,14,39,91,FE,0C,10,
31461291,00000287,false,Rx,0,8,27,74,27,B7,27,10,03,00,
31471291,00000287,false,Rx,0,8,27,74,27,B8,27,10,03,00,
31511291,00000285,false,Rx,0,8,00,00,14,39,91,FE,0C,10,
31531291,00000285,false,Rx,0,8,00,00,14,39,91,FE,0C,10,
31576291,00000287,false,Rx,0,8,27,75,27,B8,27,10,03,00,
31586291,00000287,false,Rx,0,8,27,75,27,B8,27,10,03,00,
31596291,00000287,false,Rx,0,8,27,74,27,B8,27,10,03,00,
31606291,00000287,false,Rx,0,8,27,74,27,B7,27,10,03,00,
31626291,00000285,false,Rx,0,8,00,00,14,39,91,FE,0C,10,
31731291,00000285,false,Rx,0,8,00,00,14,39,91,FE,0C,10,
31736291,00000371,false,Rx,0,8,30,00,00,00,00,00,00,00,
31741291,00000285,false,Rx,0,8,00,00,14,39,91,FE,0C,10,
31786291,00000287,false,Rx,0,8,27,70,27,B0,27,10,03,00,
31796291,00000287,false,Rx,0,8,27,70,27,B0,27,10,03,00,
31806291,00000287,false,Rx,0,8,27,70,27,B0,27,10,03,00,
31846291,00000285,false,Rx,0,8,00,00,14,39,91,FE,0C,10,
31856291,00000285,false,Rx,0,8,00,00,14,39,91,FE,0C,10,
31866291,00000285,false,Rx,0,8,00,00,14,39,91,FE,0C,10,
31876291,00000285,false,Rx,0,8,00,00,14,39,91,FE,0C,10,
31896291,00000286,false,Rx,0,8,00,00,00,3D,00,00,21,00,
31901291,00000287,false,Rx,0,8,27,69,27,A5,27,10,03,00,
31911291,00000287,false,Rx,0,8,27,6C,27,AA,27,10,03,00,
31921291,00000287,false,Rx,0,8,27,6E,27,AD,27,10,03,00,
31931291,00000287,false,Rx,0,8,27,6F,27,AE,27,10,03,00,
31951291,00000285,false,Rx,0,8,00,00,14,39,91,FE,0C,10,
31961291,00000285,false,Rx,0,8,00,00,14,39,91,FE,0C,10,
31971291,00000285,false,Rx,0,8,00,00,14,39,91,FE,0C,10,
31981291,00000285,false,Rx,0,8,00,00,14,39,91,FE,0C,10,
32016291,00000287,false,Rx,0,8,27,65,27,9E,27,10,03,00,
32036291,00000287,false,Rx,0,8,27,65,27,9E,27,10,03,00,
32056291,00000285,false,Rx,0,8,00,00,14,39,91,FE,0C,10,
32066291,00000285,false,Rx,0,8,00,00,14,39,91,FE,0C,10,
32171291,00000285,false,Rx,0,8,00,00,14,39,91,FE,0C,10,
32181291,00000285,false,Rx,0,8,00,00,14,39,91,FE,0C,10,
32191291,00000285,false,Rx,0,8,00,00,14,39,91,FE,0C,10,
32201291,00000285,false,Rx,0,8,00,00,14,39,91,FE,0C,10,
32286291,00000285,false,Rx,0,8,00,00,14,39,91,FE,0C,10,
32296291,00000285,false,Rx,0,8,00,00,14,39,91,FE,0C,10,
32326291,00000285,false,Rx,0,8,00,00,14,39,91,FE,0C,10,
32331291,00000287,false,Rx,0,8,27,65,27,9E,27,10,03,00,
32446291,00000287,false,Rx,0,8,27,65,27,9E,27,10,03,00,
32451291,00000286,false,Rx,0,8,00,00,00,3D,00,00,21,00,
32496291,00000285,false,Rx,0,8,00,00,14,39,91,FE,0C,10,
32551291,00000287,false,Rx,0,8,27,65,27,9F,27,10,03,00,
32601291,00000285,false,Rx,0,8,00,00,14,39,91,FE,0C,10,
32611291,00000285,false,Rx,0,8,00,00,14,39,91,FE,0C,10,
32656291,00000287,false,Rx,0,8,27,6D,27,AB,27,10,03,00,
32666291,00000287,false,Rx,0,8,27,70,27,B1,27,10,03,00,
32716291,00000285,false,Rx,0,8,00,00,14,39,91,FE,0C,10,
32771291,00000287,false,Rx,0,8,27,6A,27,A7,27,10,03,00,
32781291,00000287,false,Rx,0,8,27,6B,27,A7,27,10,03,00,
32791291,00000287,false,Rx,0,8,27,6A,27,A7,27,10,03,00,
32821291,00000285,false,Rx,0,8,00,00,14,39,91,FE,0C,10,
32826291,00000371,false,Rx,0,8,30,00,00,00,00,00,00,00,
32841291,00000285,false,Rx,0,8,00,00,14,39,91,FE,0C,10,
32846291,00000371,false,Rx,0,8,30,00,00,00,00,00,00,00,
32866291,00000371,false,Rx,0,8,30,00,00,00,00,00,00,00,
32986291,00000286,false,Rx,0,8,00,00,00,3D,00,00,21,00,
33001291,00000287,false,Rx,0,8,27,70,27,B0,27,10,03,00,
33041291,00000285,false,Rx,0,8,00,00,14,39,91,FE,0C,10,
33051291,00000285,false,Rx,0,8,00,00,14,39,91,FE,0C,10,
33061291,00000285,false,Rx,0,8,00,00,14,39,91,FE,0C,10,
33096291,00000287,false,Rx,0,8,27,73,27,B5,27,10,03,00,
33106291,00000287,false,Rx,0,8,27,73,27,B5,27,10,03,00,
33116291,00000287,false,Rx,0,8,27,73,27,B5,27,10,03,00,
33126291,00000287,false,Rx,0,8,27,73,27,B5,27,10,03,00,
33136291,00000287,false,Rx,0,8,27,73,27,B5,27,10,03,00,
33146291,00000285,false,Rx,0,8,00,00,14,39,91,FE,0C,10,
33156291,00000285,false,Rx,0,8,00,00,14,39,91,FE,0C,10,
33201291,00000287,false,Rx,0,8,27,74,27,B8,27,10,03,00,
33211291,00000287,false,Rx,0,8,27,74,27,B7,27,10,03,00,
33221291,00000287,false,Rx,0,8,27,74,27,B7,27,10,03,00,
33261291,00000285,false,Rx,0,8,00,00,14,39,91,FE,0C,10,
33306291,00000287,false,Rx,0,8,27,76,27,BA,27,10,03,00,
33361291,00000371,false,Rx,0,8,30,00,00,00,00,00,00,00,
33366291,00000285,false,Rx,0,8,00,00,14,39,91,FE,0C,10,
33376291,00000285,false,Rx,0,8,00,00,14,39,91,FE,0C,10,
33386291,00000285,false,Rx,0,8,00,00,14,39,91,FE,0C,10,
33396291,00000285,false,Rx,0,8,00,00,14,39,91,FE,0C,10,
33471291,00000285,false,Rx,0,8,00,00,14,39,91,FE,0C,10,
33481291,00000285,false,Rx,0,8,00,00,14,39,91,FE,0C,10,
33491291,00000285,false,Rx,0,8,00,00,14,39,91,FE,0C,10,
33501291,00000285,false,Rx,0,8,00,00,14,39,91,FE,0C,10,
33521291,00000285,false,Rx,0,8,00,00,14,39,91,FE,0C,10,
33526291,00000287,false,Rx,0,8,27,74,27,B6,27,10,03,00,
33536291,00000287,false,Rx,0,8,27,74,27,B7,27,10,03,00,
33586291,00000285,false,Rx,0,8,00,00,14,39,91,FE,0C,10,
33641291,00000287,false,Rx,0,8,27,75,27,BA,27,10,03,00,
33691291,00000285,false,Rx,0,8,00,00,14,39,91,FE,0C,10,
33746291,00000287,false,Rx,0,8,27,71,27,B3,27,10,03,00,
33796291,00000285,false,Rx,0,8,00,00,14,39,91,FE,0C,10,
33916291,00000371,false,Rx,0,8,30,00,00,00,00,00,00,00,
33936291,00000371,false,Rx,0,8,30,00,00,00,00,00,00,00,
33966291,00000287,false,Rx,0,8,27,78,27,BE,27,10,03,00,
33976291,00000287,false,Rx,0,8,27,78,27,BD,27,10,03,00,
34016291,00000285,false,Rx,0,8,00,00,14,39,91,FE,0C,10,
34026291,00000285,false,Rx,0,8,00,00,14,39,91,FE,0C,10,
34036291,00000285,false,Rx,0,8,00,00,14,39,91,FE,0C,10,
34176291,00000287,false,Rx,0,8,27,7B,27,C4,27,10,03,00,
34186291,00000287,false,Rx,0,8,27,7C,27,C5,27,10,03,00,
34196291,00000287,false,Rx,0,8,27,7C,27,C5,27,10,03,00,
34226291,00000285,false,Rx,0,8,00,00,14,39,91,FE,0C,10,
34236291,00000285,false,Rx,0,8,00,00,14,39,91,FE,0C,10,
34281291,00000287,false,Rx,0,8,27,7B,27,C3,27,10,03,00,
34291291,00000287,false,Rx,0,8,27,7A,27,C2,27,10,03,00,
34311291,00000287,false,Rx,0,8,27,79,27,BF,27,10,03,00,
34341291,00000285,false,Rx,0,8,00,00,14,39,91,FE,0C,10,
34351291,00000285,false,Rx,0,8,00,00,14,39,91,FE,0C,10,
34361291,00000285,false,Rx,0,8,00,00,14,39,91,FE,0C,10,
34386291,00000287,false,Rx,0,8,27,76,27,BB,27,10,03,00,
34396291,00000287,false,Rx,0,8,27,76,27,BB,27,10,03,00,
34406291,00000287,false,Rx,0,8,27,76,27,BB,27,10,03,00,
34416291,00000287,false,Rx,0,8,27,76,27,BB,27,10,03,00,
34426291,00000287,false,Rx,0,8,27,77,27,BC,27,10,03,00,
34436291,00000287,false,Rx,0,8,27,77,27,BB,27,10,03,00,
34446291,00000285,false,Rx,0,8,00,00,14,39,91,FE,0C,10,
34451291,00000371,false,Rx,0,8,30,00,00,00,00,00,00,00,
34501291,00000287,false,Rx,0,8,27,77,27,BC,27,10,03,00,
34551291,00000285,false,Rx,0,8,00,00,14,39,91,FE,0C,10,
34571291,00000285,false,Rx,0,8,00,00,14,39,91,FE,0C,10,
34606291,00000287,false,Rx,0,8,27,7A,27,C1,27,10,03,00,
34611291,00000286,false,Rx,0,8,00,00,00,3C,00,00,21,00,
34616291,00000287,false,Rx,0,8,27,7A,27,C1,27,10,03,00,
34656291,00000285,false,Rx,0,8,00,00,14,39,91,FE,0C,10,
34666291,00000285,false,Rx,0,8,00,00,14,39,91,FE,0C,10,
34676291,00000285,false,Rx,0,8,00,00,14,39,91,FE,0C,10,
34686291,00000285,false,Rx,0,8,00,00,14,39,91,FE,0C,10,
34696291,00000285,false,Rx,0,8,00,00,14,39,91,FE,0C,10,
34711291,00000287,false,Rx,0,8,27,7E,27,C7,27,10,03,00,
34771291,00000285,false,Rx,0,8,00,00,14,39,91,FE,0C,10,
34876291,00000285,false,Rx,0,8,00,00,14,39,91,FE,0C,10,
34931291,00000287,false,Rx,0,8,27,88,27,DA,27,10,03,00,
34941291,00000287,false,Rx,0,8,27,89,27,DA,27,10,03,00,
34986291,00000371,false,Rx,0,8,30,00,00,00,00,00,00,00,
35036291,00000287,false,Rx,0,8,27,89,27,DB,27,10,03,00,
35096291,00000285,false,Rx,0,8,00,00,14,39,91,FE,0C,10,
35106291,00000285,false,Rx,0,8,00,00,14,39,91,FE,0C,10,
35151291,00000287,false,Rx,0,8,27,8D,27,E1,27,10,03,00,
35201291,00000285,false,Rx,0,8,00,00,14,39,91,FE,0C,10,
35211291,00000285,false,Rx,0,8,00,00,14,39,91,FE,0C,10,
35256291,00000287,false,Rx,0,8,27,9D,27,FB,27,10,03,00,
35371291,00000287,false,Rx,0,8,27,91,27,E8,27,10,03,00,
35381291,00000287,false,Rx,0,8,27,8B,27,DE,27,10,03,00,
35421291,00000285,false,Rx,0,8,00,00,14,39,91,FE,0C,10,
35476291,00000287,false,Rx,0,8,27,81,27,CD,27,10,03,00,
35486291,00000287,false,Rx,0,8,27,81,27,CD,27,10,03,00,
35506291,00000287,false,Rx,0,8,27,81,27,CD,27,10,03,00,
35516291,00000287,false,Rx,0,8,27,81,27,CD,27,10,03,00,
35536291,00000285,false,Rx,0,8,00,00,14,39,91,FE,0C,10,
35541291,00000371,false,Rx,0,8,30,00,00,00,00,00,00,00,
35546291,00000285,false,Rx,0,8,00,00,14,39,91,FE,0C,10,
35581291,00000287,false,Rx,0,8,27,81,27,CE,27,10,03,00,
35591291,00000287,false,Rx,0,8,27,82,27,CE,27,10,03,00,
35601291,00000287,false,Rx,0,8,27,82,27,CF,27,10,03,00,
35621291,00000287,false,Rx,0,8,27,82,27,CF,27,10,03,00,
35641291,00000285,false,Rx,0,8,00,00,14,39,91,FE,0C,10,
35651291,00000285,false,Rx,0,8,00,00,14,39,91,FE,0C,10,
35686291,00000287,false,Rx,0,8,27,83,27,D0,27,10,03,00,
35696291,00000287,false,Rx,0,8,27,83,27,D0,27,10,03,00,
35716291,00000287,false,Rx,0,8,27,83,27,D1,27,10,03,00,
35746291,00000285,false,Rx,0,8,00,00,14,39,91,FE,0C,10,
35756291,00000285,false,Rx,0,8,00,00,14,39,91,FE,0C,10,
35766291,00000285,false,Rx,0,8,00,00,14,39,91,FE,0C,10,
35776291,00000285,false,Rx,0,8,00,00,14,39,91,FE,0C,10,
35851291,00000285,false,Rx,0,8,00,00,14,39,91,FE,0C,10,
35861291,00000285,false,Rx,0,8,00,00,14,39,91,FE,0C,10,
35881291,00000285,false,Rx,0,8,00,00,14,39,91,FE,0C,10,
35901291,00000285,false,Rx,0,8,00,00,14,39,91,FE,0C,10,
35906291,00000287,false,Rx,0,8,27,86,27,D6,27,10,03,00,
35956291,00000285,false,Rx,0,8,00,00,14,39,91,FE,0C,10,
35966291,00000285,false,Rx,0,8,00,00,14,39,91,FE,0C,10,
35976291,00000285,false,Rx,0,8,00,00,14,39,91,FE,0C,10,
35986291,00000285,false,Rx,0,8,00,00,14,39,91,FE,0C,10,
35996291,00000285,false,Rx,0,8,00,00,14,39,91,FE,0C,10,
36006291,00000285,false,Rx,0,8,00,00,14,39,91,FE,0C,10,
36011291,00000287,false,Rx,0,8,27,87,27,D7,27,10,03,00,
36026291,00000285,false,Rx,0,8,00,00,14,39,91,FE,0C,10,
36071291,00000285,false,Rx,0,8,00,00,14,39,91,FE,0C,10,
36126291,00000287,false,Rx,0,8,27,8C,27,DF,27,10,03,00,
36176291,00000285,false,Rx,0,8,00,00,14,39,91,FE,0C,10,
36231291,00000287,false,Rx,0,8,27,A2,28,04,27,10,03,00,
36236291,00000286,false,Rx,0,8,00,00,00,3C,00,00,21,00,
36241291,00000287,false,Rx,0,8,27,A2,28,04,27,10,03,00,
36256291,00000286,false,Rx,0,8,00,00,00,3C,00,00,21,00,
36276291,00000286,false,Rx,0,8,00,00,00,3C,00,00,21,00,
36281291,00000285,false,Rx,0,8,00,00,14,39,91,FE,0C,10,
36291291,00000285,false,Rx,0,8,00,00,14,39,91,FE,0C,10,
36296291,00000286,false,Rx,0,8,00,00,00,3C,00,00,21,00,
36501291,00000285,false,Rx,0,8,00,00,14,39,91,FE,0C,10,
36556291,00000287,false,Rx,0,8,27,CD,28,4B,27,10,03,00,
36566291,00000287,false,Rx,0,8,27,CC,28,4B,27,10,03,00,
36606291,00000285,false,Rx,0,8,00,00,14,39,91,FE,0C,10,
36611291,00000371,false,Rx,0,8,30,00,00,00,00,00,00,00,
36616291,00000285,false,Rx,0,8,00,00,14,39,91,FE,0C,10,
36661291,00000287,false,Rx,0,8,27,D1,28,53,27,10,03,00,
36671291,00000287,false,Rx,0,8,27,D1,28,53,27,10,03,00,
36681291,00000287,false,Rx,0,8,27,D1,28,53,27,10,03,00,
36691291,00000287,false,Rx,0,8,27,D1,28,53,27,10,03,00,
36701291,00000287,false,Rx,0,8,27,D2,28,54,27,10,03,00,
36711291,00000285,false,Rx,0,8,00,00,14,39,91,FE,0C,10,
36766291,00000287,false,Rx,0,8,27,D2,28,53,27,10,03,00,
36771291,00000286,false,Rx,0,8,00,00,00,3C,00,00,21,00,
36776291,00000287,false,Rx,0,8,27,D1,28,53,27,10,03,00,
36796291,00000287,false,Rx,0,8,27,D1,28,53,27,10,03,00,
36806291,00000287,false,Rx,0,8,27,D2,28,54,27,10,03,00,
36816291,00000285,false,Rx,0,8,00,00,14,39,91,FE,0C,10,
36826291,00000285,false,Rx,0,8,00,00,14,39,91,FE,0C,10,
36871291,00000287,false,Rx,0,8,27,D3,28,56,27,10,03,00,
36881291,00000287,false,Rx,0,8,27,D3,28,55,27,10,03,00,
36891291,00000287,false,Rx,0,8,27,D2,28,55,27,10,03,00,
36901291,00000287,false,Rx,0,8,27,D2,28,55,27,10,03,00,
36911291,00000287,false,Rx,0,8,27,D3,28,55,27,10,03,00,
36921291,00000285,false,Rx,0,8,00,00,14,39,91,FE,0C,10,
36931291,00000285,false,Rx,0,8,00,00,14,39,91,FE,0C,10,
36941291,00000285,false,Rx,0,8,00,00,14,39,91,FE,0C,10,
36951291,00000285,false,Rx,0,8,00,00,14,39,91,FE,0C,10,
36976291,00000287,false,Rx,0,8,27,D1,28,53,27,10,03,00,
36986291,00000287,false,Rx,0,8,27,D1,28,53,27,10,03,00,
37006291,00000287,false,Rx,0,8,27,D1,28,53,27,10,03,00,
37036291,00000285,false,Rx,0,8,00,00,14,39,91,FE,0C,10,
37046291,00000285,false,Rx,0,8,00,00,14,39,91,FE,0C,10,
37056291,00000285,false,Rx,0,8,00,00,14,39,91,FE,0C,10,
37066291,00000285,false,Rx,0,8,00,00,14,39,91,FE,0C,10,
37076291,00000285,false,Rx,0,8,00,00,14,39,91,FE,0C,10,
37081291,00000287,false,Rx,0,8,27,D0,28,50,27,10,03,00,
37091291,00000287,false,Rx,0,8,27,D0,28,50,27,10,03,00,
37141291,00000285,false,Rx,0,8,00,00,14,39,91,FE,0C,10,
37146291,00000371,false,Rx,0,8,30,00,00,00,00,00,00,00,
37151291,00000285,false,Rx,0,8,00,00,14,39,91,FE,0C,10,
37161291,00000285,false,Rx,0,8,00,00,14,39,91,FE,0C,10,
37171291,00000285,false,Rx,0,8,00,00,14,39,91,FE,0C,10,
37191291,00000285,false,Rx,0,8,00,00,14,39,91,FE,0C,10,
37211291,00000285,false,Rx,0,8,00,00,14,39,91,FE,0C,10,
37246291,00000285,false,Rx,0,8,00,00,14,39,91,FE,0C,10,
37256291,00000285,false,Rx,0,8,00,00,14,39,91,FE,0C,10,
37276291,00000285,false,Rx,0,8,00,00,14,39,91,FE,0C,10,
37296291,00000285,false,Rx,0,8,00,00,14,39,91,FE,0C,10,
37301291,00000287,false,Rx,0,8,27,C7,28,43,27,10,03,00,
37306291,00000286,false,Rx,0,8,00,00,00,3C,00,00,21,00,
37311291,00000287,false,Rx,0,8,27,C4,28,3D,27,10,03,00,
37326291,00000286,false,Rx,0,8,00,00,00,3C,00,00,21,00,
37346291,00000286,false,Rx,0,8,00,00,00,3C,00,00,21,00,
37361291,00000285,false,Rx,0,8,00,00,14,39,91,FE,0C,10,
37466291,00000285,false,Rx,0,8,00,00,14,39,91,FE,0C,10,
37521291,00000287,false,Rx,0,8,27,D6,28,5C,27,10,03,00,
37531291,00000287,false,Rx,0,8,27,D6,28,5C,27,10,03,00,
37541291,00000287,false,Rx,0,8,27,D7,28,5D,27,10,03,00,
37571291,00000285,false,Rx,0,8,00,00,14,39,91,FE,0C,10,
37581291,00000285,false,Rx,0,8,00,00,14,39,91,FE,0C,10,
37626291,00000287,false,Rx,0,8,27,D3,28,56,27,10,03,00,
37681291,00000371,false,Rx,0,8,30,00,00,00,00,00,00,00,
37701291,00000371,false,Rx,0,8,30,00,00,00,00,00,00,00,
37721291,00000371,false,Rx,0,8,30,00,00,00,00,00,00,00,
37731291,00000287,false,Rx,0,8,27,D2,28,54,27,10,03,00,
37741291,00000287,false,Rx,0,8,27,D2,28,54,27,10,03,00,
37791291,00000285,false,Rx,0,8,00,00,14,39,91,FE,0C,10,
37801291,00000285,false,Rx,0,8,00,00,14,39,91,FE,0C,10,
37836291,00000287,false,Rx,0,8,27,D1,28,52,27,10,03,00,
37841291,00000286,false,Rx,0,8,00,00,00,3C,00,00,21,00,
37846291,00000287,false,Rx,0,8,27,D1,28,52,27,10,03,00,
37856291,00000287,false,Rx,0,8,27,D1,28,52,27,10,03,00,
37866291,00000287,false,Rx,0,8,27,D1,28,52,27,10,03,00,
37876291,00000287,false,Rx,0,8,27,D1,28,52,27,10,03,00,
37896291,00000285,false,Rx,0,8,00,00,14,39,91,FE,0C,10,
37951291,00000287,false,Rx,0,8,27,CF,28,50,27,10,03,00,
37961291,00000287,false,Rx,0,8,27,CF,28,50,27,10,03,00,
37971291,00000287,false,Rx,0,8,27,CF,28,50,27,10,03,00,
37981291,00000287,false,Rx,0,8,27,CF,28,4F,27,10,03,00,
37991291,00000287,false,Rx,0,8,27,CF,28,4F,27,10,03,00,
38001291,00000285,false,Rx,0,8,00,00,14,39,91,FE,0C,10,
38056291,00000287,false,Rx,0,8,27,CC,28,4B,27,10,03,00,
